;$FILEVERSION=1.1
;$STARTTIME=45910.4289280093
;
;   Start time: 10.09.2025 10:17:39.380.0
;   Generated by PCAN-View v5.3.2.952
;
;   Message Number
;   |         Time Offset (ms)
;   |         |        Type
;   |         |        |        ID (hex)
;   |         |        |        |     Data Length
;   |         |        |        |     |   Data Bytes (hex) ...
;   |         |        |        |     |   |
;---+--   ----+----  --+--  ----+---  +  -+ -- -- -- -- -- -- --
     1)       886.6  Rx         0102  8  63 DB 5C 00 E7 21 00 00 
     2)       886.9  Rx         0112  8  63 9C FF 19 00 35 27 00 
     3)       887.1  Rx         0122  8  63 F3 FF 02 00 F9 06 00 
     4)       888.1  Rx         0100  8  63 30 61 00 D9 FC FF 00 
     5)       888.4  Rx         0110  8  63 E5 FC A0 00 C1 26 00 
     6)       888.6  Rx         0120  8  63 A5 FF 12 00 AA 06 00 
     7)       891.7  Rx         0102  8  64 39 5C 00 C8 1A 00 00 
     8)       891.9  Rx         0112  8  64 75 FF 2C 00 3A 27 00 
     9)       892.1  Rx         0122  8  64 F0 FF 05 00 F7 06 00 
    10)       893.1  Rx         0100  8  64 C5 5F 00 69 F6 FF 00 
    11)       893.4  Rx         0110  8  64 E2 FC A8 00 BC 26 00 
    12)       893.6  Rx         0120  8  64 A4 FF 13 00 A9 06 00 
    13)       896.7  Rx         0102  8  65 AE 5B 00 AB 14 00 00 
    14)       896.9  Rx         0112  8  65 75 FF 2D 00 48 27 00 
    15)       897.1  Rx         0122  8  65 F1 FF 05 00 F7 06 00 
    16)       898.2  Rx         0100  8  65 F5 5D 00 2F EE FF 00 
    17)       898.4  Rx         0110  8  65 DF FC A8 00 AF 26 00 
    18)       898.6  Rx         0120  8  65 A4 FF 13 00 A9 06 00 
    19)       901.7  Rx         0102  8  66 CC 5C 00 3E 21 00 00 
    20)       901.9  Rx         0112  8  66 75 FF 04 00 34 27 00 
    21)       902.1  Rx         0122  8  66 F1 FF 00 00 F8 06 00 
    22)       903.1  Rx         0100  8  66 F1 5D 00 1D EE FF 00 
    23)       903.4  Rx         0110  8  66 E0 FC A8 00 AD 26 00 
    24)       903.6  Rx         0120  8  66 A4 FF 13 00 A9 06 00 
    25)       906.6  Rx         0102  8  67 97 5D 00 2C 2A 00 00 
    26)       906.9  Rx         0112  8  67 9C FF 18 00 25 27 00 
    27)       907.1  Rx         0122  8  67 F5 FF 02 00 FC 06 00 
    28)       908.1  Rx         0100  8  67 A5 5E 00 4E F1 FF 00 
    29)       908.3  Rx         0110  8  67 E4 FC AA 00 AC 26 00 
    30)       908.6  Rx         0120  8  67 A4 FF 13 00 A9 06 00 
    31)       908.9  Rx         0182  8  26 83 00 00 00 00 00 00 
    32)       911.6  Rx         0102  8  68 81 5C 00 F2 1D 00 00 
    33)       911.9  Rx         0112  8  68 9C FF 53 00 3A 27 00 
    34)       912.1  Rx         0122  8  68 F3 FF 09 00 F7 06 00 
    35)       913.1  Rx         0100  8  68 AE 5E 00 77 F1 FF 00 
    36)       913.4  Rx         0110  8  68 E0 FC A6 00 B4 26 00 
    37)       913.6  Rx         0120  8  68 A4 FF 13 00 A9 06 00 
    38)       916.6  Rx         0102  8  69 C9 5B 00 DB 15 00 00 
    39)       916.9  Rx         0112  8  69 88 FF 3E 00 FB 26 00 
    40)       917.1  Rx         0122  8  69 F5 FF 07 00 FA 06 00 
    41)       918.1  Rx         0100  8  69 89 5E 00 CF F0 FF 00 
    42)       918.4  Rx         0110  8  69 DF FC A3 00 B6 26 00 
    43)       918.6  Rx         0120  8  69 A4 FF 12 00 A9 06 00 
    44)       921.7  Rx         0102  8  6A 72 5C 00 49 1D 00 00 
    45)       921.9  Rx         0112  8  6A 88 FF 17 00 0C 27 00 
    46)       922.1  Rx         0122  8  6A F5 FF 02 00 FC 06 00 
    47)       923.1  Rx         0100  8  6A 36 60 00 6A F8 FF 00 
    48)       923.4  Rx         0110  8  6A DB FC A0 00 B4 26 00 
    49)       923.6  Rx         0120  8  6A A4 FF 12 00 A9 06 00 
    50)       926.7  Rx         0102  8  6B FF 5C 00 7D 23 00 00 
    51)       926.9  Rx         0112  8  6B 75 FF 04 00 21 27 00 
    52)       927.1  Rx         0122  8  6B F5 FF 00 00 FC 06 00 
    53)       928.1  Rx         0100  8  6B C2 60 00 E6 FA FF 00 
    54)       928.4  Rx         0110  8  6B DB FC 9C 00 B1 26 00 
    55)       928.6  Rx         0120  8  6B A4 FF 12 00 A9 06 00 
    56)       931.6  Rx         0102  8  6C F3 5B 00 B4 17 00 00 
    57)       931.9  Rx         0112  8  6C 88 FF 2B 00 22 27 00 
    58)       932.1  Rx         0122  8  6C F3 FF 05 00 F9 06 00 
    59)       933.1  Rx         0100  8  6C 26 5F 00 98 F3 FF 00 
    60)       933.4  Rx         0110  8  6C DB FC 9C 00 B1 26 00 
    61)       933.6  Rx         0120  8  6C A4 FF 12 00 A9 06 00 
    62)       936.6  Rx         0102  8  6D 8B 5B 00 21 13 00 00 
    63)       936.9  Rx         0112  8  6D 88 FF 2C 00 35 27 00 
    64)       937.1  Rx         0122  8  6D F3 FF 05 00 F9 06 00 
    65)       938.1  Rx         0100  8  6D 06 5E 00 7C EE FF 00 
    66)       938.4  Rx         0110  8  6D DD FC 9B 00 B2 26 00 
    67)       938.6  Rx         0120  8  6D A4 FF 11 00 A9 06 00 
    68)       941.6  Rx         0102  8  6E 78 5C 00 8D 1D 00 00 
    69)       941.8  Rx         0112  8  6E 75 FF 2C 00 39 27 00 
    70)       942.1  Rx         0122  8  6E F3 FF 05 00 F9 06 00 
    71)       943.1  Rx         0100  8  6E 56 5E 00 E7 EF FF 00 
    72)       943.4  Rx         0110  8  6E E4 FC 9E 00 BB 26 00 
    73)       943.6  Rx         0120  8  6E A5 FF 12 00 AA 06 00 
    74)       946.7  Rx         0102  8  6F A9 5D 00 F6 2A 00 00 
    75)       946.9  Rx         0112  8  6F B1 FF 19 00 35 27 00 
    76)       947.1  Rx         0122  8  6F F3 FF 02 00 F9 06 00 
    77)       948.2  Rx         0100  8  6F 5F 5F 00 9A F4 FF 00 
    78)       948.4  Rx         0110  8  6F E5 FC 99 00 C0 26 00 
    79)       948.6  Rx         0120  8  6F A5 FF 11 00 AA 06 00 
    80)       951.7  Rx         0102  8  70 98 5C 00 F5 1E 00 00 
    81)       951.9  Rx         0112  8  70 9C FF 2B 00 0D 27 00 
    82)       952.1  Rx         0122  8  70 F7 FF 05 00 FD 06 00 
    83)       953.1  Rx         0100  8  70 3C 5F 00 FB F3 FF 00 
    84)       953.4  Rx         0110  8  70 E5 FC 96 00 B9 26 00 
    85)       953.6  Rx         0120  8  70 A5 FF 11 00 AA 06 00 
    86)       956.6  Rx         0102  8  71 84 5B 00 D2 12 00 00 
    87)       956.9  Rx         0112  8  71 B0 FF 41 00 4C 27 00 
    88)       957.1  Rx         0122  8  71 F5 FF 07 00 FA 06 00 
    89)       958.1  Rx         0100  8  71 36 5F 00 E0 F3 FF 00 
    90)       958.4  Rx         0110  8  71 E9 FC 96 00 B2 26 00 
    91)       958.6  Rx         0120  8  71 A5 FF 11 00 AA 06 00 
    92)       961.6  Rx         0102  8  72 F7 5B 00 E1 17 00 00 
    93)       961.9  Rx         0112  8  72 9C FF 18 00 25 27 00 
    94)       962.1  Rx         0122  8  72 F5 FF 02 00 FC 06 00 
    95)       963.1  Rx         0100  8  72 20 60 00 06 F8 FF 00 
    96)       963.3  Rx         0110  8  72 E9 FC 91 00 AA 26 00 
    97)       963.6  Rx         0120  8  72 A5 FF 10 00 AA 06 00 
    98)       966.6  Rx         0102  8  73 B0 5C 00 03 20 00 00 
    99)       966.9  Rx         0112  8  73 AF FF 3F 00 12 27 00 
   100)       967.1  Rx         0122  8  73 F7 FF 07 00 FC 06 00 
   101)       968.1  Rx         0100  8  73 8F 60 00 FE F9 FF 00 
   102)       968.4  Rx         0110  8  73 E9 FC 91 00 AA 26 00 
   103)       968.6  Rx         0120  8  73 A5 FF 10 00 AA 06 00 
   104)       971.6  Rx         0102  8  74 2B 5C 00 2A 1A 00 00 
   105)       971.9  Rx         0112  8  74 AF FF 3F 00 27 27 00 
   106)       972.1  Rx         0122  8  74 F3 FF 07 00 F8 06 00 
   107)       973.2  Rx         0100  8  74 B7 5E 00 A0 F1 FF 00 
   108)       973.4  Rx         0110  8  74 E7 FC 94 00 B4 26 00 
   109)       973.6  Rx         0120  8  74 A5 FF 11 00 AA 06 00 
   110)       976.6  Rx         0102  8  75 C3 5B 00 97 15 00 00 
   111)       976.9  Rx         0112  8  75 88 FF 2C 00 39 27 00 
   112)       977.1  Rx         0122  8  75 F3 FF 05 00 F9 06 00 
   113)       978.2  Rx         0100  8  75 DA 5D 00 B5 ED FF 00 
   114)       978.4  Rx         0110  8  75 EA FC 99 00 BB 26 00 
   115)       978.6  Rx         0120  8  75 A5 FF 11 00 AB 06 00 
   116)       981.7  Rx         0102  8  76 AD 5C 00 E1 1F 00 00 
   117)       981.9  Rx         0112  8  76 B0 FF 41 00 49 27 00 
   118)       982.1  Rx         0122  8  76 F5 FF 07 00 FA 06 00 
   119)       983.1  Rx         0100  8  76 99 5E 00 18 F1 FF 00 
   120)       983.4  Rx         0110  8  76 EC FC 9B 00 C1 26 00 
   121)       983.6  Rx         0120  8  76 A6 FF 11 00 AB 06 00 
   122)       986.6  Rx         0102  8  77 78 5D 00 CF 28 00 00 
   123)       986.9  Rx         0112  8  77 88 FF 40 00 36 27 00 
   124)       987.1  Rx         0122  8  77 F3 FF 07 00 F8 06 00 
   125)       988.1  Rx         0100  8  77 DF 5F 00 DF F6 FF 00 
   126)       988.4  Rx         0110  8  77 EC FC 9E 00 BE 26 00 
   127)       988.6  Rx         0120  8  77 A6 FF 12 00 AB 06 00 
   128)       991.6  Rx         0102  8  78 33 5C 00 84 1A 00 00 
   129)       991.9  Rx         0112  8  78 AF FF 2C 00 21 27 00 
   130)       992.1  Rx         0122  8  78 F7 FF 05 00 FD 06 00 
   131)       993.1  Rx         0100  8  78 A2 5F 00 CA F5 FF 00 
   132)       993.4  Rx         0110  8  78 E7 FC 9E 00 B9 26 00 
   133)       993.6  Rx         0120  8  78 A5 FF 12 00 AA 06 00 
   134)       996.6  Rx         0102  8  79 4D 5B 00 67 10 00 00 
   135)       996.9  Rx         0112  8  79 9C FF 40 00 36 27 00 
   136)       997.1  Rx         0122  8  79 F3 FF 07 00 F8 06 00 
   137)       998.2  Rx         0100  8  79 85 5F 00 47 F5 FF 00 
   138)       998.4  Rx         0110  8  79 E9 FC A3 00 B1 26 00 
   139)       998.6  Rx         0120  8  79 A5 FF 12 00 AA 06 00 
   140)      1001.7  Rx         0102  8  7A 03 5C 00 68 18 00 00 
   141)      1001.9  Rx         0112  8  7A 9C FF 40 00 35 27 00 
   142)      1002.1  Rx         0122  8  7A F5 FF 07 00 FA 06 00 
   143)      1003.2  Rx         0100  8  7A D7 5F 00 BB F6 FF 00 
   144)      1003.4  Rx         0110  8  7A EA FC A8 00 AF 26 00 
   145)      1003.6  Rx         0120  8  7A A5 FF 13 00 AA 06 00 
   146)      1006.7  Rx         0102  8  7B 5F 5D 00 B5 27 00 00 
   147)      1006.9  Rx         0112  8  7B 9C FF 41 00 5E 27 00 
   148)      1007.1  Rx         0122  8  7B F1 FF 07 00 F6 06 00 
   149)      1008.1  Rx         0100  8  7B 23 60 00 14 F8 FF 00 
   150)      1008.4  Rx         0110  8  7B EA FC A5 00 AD 26 00 
   151)      1008.6  Rx         0120  8  7B A5 FF 12 00 AA 06 00 
   152)      1011.6  Rx         0102  8  7C 5F 5C 00 73 1C 00 00 
   153)      1011.9  Rx         0112  8  7C 75 FF 2D 00 4D 27 00 
   154)      1012.1  Rx         0122  8  7C F3 FF 05 00 F9 06 00 
   155)      1013.1  Rx         0100  8  7C 70 5E 00 5D F0 FF 00 
   156)      1013.4  Rx         0110  8  7C EC FC A3 00 B4 26 00 
   157)      1013.6  Rx         0120  8  7C A6 FF 12 00 AB 06 00 
   158)      1016.6  Rx         0102  8  7D 99 5B 00 BE 13 00 00 
   159)      1016.9  Rx         0112  8  7D 74 FF 18 00 39 27 00 
   160)      1017.1  Rx         0122  8  7D F1 FF 02 00 F7 06 00 
   161)      1018.1  Rx         0100  8  7D 9A 5D 00 92 EC FF 00 
   162)      1018.4  Rx         0110  8  7D E9 FC A8 00 B7 26 00 
   163)      1018.6  Rx         0120  8  7D A5 FF 13 00 AA 06 00 
   164)      1021.6  Rx         0102  8  7E 5C 5C 00 52 1C 00 00 
   165)      1021.9  Rx         0112  8  7E 75 FF 52 00 0F 27 00 
   166)      1022.1  Rx         0122  8  7E F5 FF 09 00 F9 06 00 
   167)      1023.1  Rx         0100  8  7E B3 5E 00 8E F1 FF 00 
   168)      1023.4  Rx         0110  8  7E E9 FC AA 00 B6 26 00 
   169)      1023.6  Rx         0120  8  7E A5 FF 13 00 AA 06 00 
   170)      1026.7  Rx         0102  8  7F 33 5D 00 C6 25 00 00 
   171)      1026.9  Rx         0112  8  7F 75 FF 3F 00 26 27 00 
   172)      1027.1  Rx         0122  8  7F F0 FF 07 00 F6 06 00 
   173)      1028.2  Rx         0100  8  7F 5B 60 00 12 F9 FF 00 
   174)      1028.4  Rx         0110  8  7F E5 FC AA 00 B4 26 00 
   175)      1028.6  Rx         0120  8  7F A5 FF 13 00 A9 06 00 
   176)      1031.7  Rx         0102  8  80 DE 5B 00 C7 16 00 00 
   177)      1031.9  Rx         0112  8  80 9C FF 19 00 34 27 00 
   178)      1032.1  Rx         0122  8  80 F3 FF 02 00 FA 06 00 
   179)      1033.1  Rx         0100  8  80 DE 5F 00 DB F6 FF 00 
   180)      1033.4  Rx         0110  8  80 DF FC A8 00 B2 26 00 
   181)      1033.6  Rx         0120  8  80 A4 FF 13 00 A9 06 00 
   182)      1036.6  Rx         0102  8  81 74 5B 00 1E 12 00 00 
   183)      1036.9  Rx         0112  8  81 75 FF 3E 00 0E 27 00 
   184)      1037.1  Rx         0122  8  81 F3 FF 07 00 F8 06 00 
   185)      1038.1  Rx         0100  8  81 49 5F 00 36 F4 FF 00 
   186)      1038.4  Rx         0110  8  81 DF FC A3 00 AF 26 00 
   187)      1038.6  Rx         0120  8  81 A4 FF 12 00 A9 06 00 
   188)      1041.6  Rx         0102  8  82 59 5C 00 30 1C 00 00 
   189)      1041.9  Rx         0112  8  82 88 FF 3E 00 0E 27 00 
   190)      1042.1  Rx         0122  8  82 F3 FF 07 00 F8 06 00 
   191)      1043.1  Rx         0100  8  82 78 5F 00 0C F5 FF 00 
   192)      1043.4  Rx         0110  8  82 DF FC A5 00 B9 26 00 
   193)      1043.6  Rx         0120  8  82 A4 FF 12 00 A9 06 00 
   194)      1046.6  Rx         0102  8  83 53 5D 00 2E 27 00 00 
   195)      1046.9  Rx         0112  8  83 AF FF 2C 00 3A 27 00 
   196)      1047.1  Rx         0122  8  83 F0 FF 05 00 F7 06 00 
   197)      1048.1  Rx         0100  8  83 19 60 00 E7 F7 FF 00 
   198)      1048.4  Rx         0110  8  83 E4 FC A5 00 BE 26 00 
   199)      1048.6  Rx         0120  8  83 A5 FF 13 00 AA 06 00 
   200)      1051.7  Rx         0102  8  84 7C 5C 00 BA 1D 00 00 
   201)      1051.9  Rx         0112  8  84 75 FF 18 00 25 27 00 
   202)      1052.1  Rx         0122  8  84 F5 FF 02 00 FC 06 00 
   203)      1053.1  Rx         0100  8  84 EA 5E 00 87 F2 FF 00 
   204)      1053.4  Rx         0110  8  84 E5 FC A0 00 BC 26 00 
   205)      1053.6  Rx         0120  8  84 A5 FF 12 00 AA 06 00 
   206)      1056.7  Rx         0102  8  85 DF 5B 00 D2 16 00 00 
   207)      1056.9  Rx         0112  8  85 9C FF 2D 00 35 27 00 
   208)      1057.1  Rx         0122  8  85 F5 FF 05 00 FB 06 00 
   209)      1058.2  Rx         0100  8  85 2E 5E 00 32 EF FF 00 
   210)      1058.4  Rx         0110  8  85 E4 FC 9B 00 B7 26 00 
   211)      1058.6  Rx         0120  8  85 A5 FF 11 00 AA 06 00 
   212)      1061.6  Rx         0102  8  86 82 5C 00 FD 1D 00 00 
   213)      1061.9  Rx         0112  8  86 75 FF 19 00 4C 27 00 
   214)      1062.1  Rx         0122  8  86 F3 FF 02 00 FA 06 00 
   215)      1063.1  Rx         0100  8  86 F1 5E 00 A7 F2 FF 00 
   216)      1063.4  Rx         0110  8  86 E4 FC 9C 00 B4 26 00 
   217)      1063.6  Rx         0120  8  86 A4 FF 12 00 AA 06 00 
   218)      1066.6  Rx         0102  8  87 4E 5D 00 F6 26 00 00 
   219)      1066.9  Rx         0112  8  87 88 FF 05 00 34 27 00 
   220)      1067.1  Rx         0122  8  87 F3 FF 00 00 FA 06 00 
   221)      1068.1  Rx         0100  8  87 59 60 00 09 F9 FF 00 
   222)      1068.4  Rx         0110  8  87 E4 FC 99 00 AD 26 00 
   223)      1068.6  Rx         0120  8  87 A5 FF 11 00 AA 06 00 
   224)      1071.7  Rx         0102  8  88 18 5C 00 54 19 00 00 
   225)      1071.9  Rx         0112  8  88 88 FF 2B 00 26 27 00 
   226)      1072.1  Rx         0122  8  88 F3 FF 05 00 F9 06 00 
   227)      1073.1  Rx         0100  8  88 31 5F 00 C9 F3 FF 00 
   228)      1073.4  Rx         0110  8  88 E2 FC 96 00 AA 26 00 
   229)      1073.6  Rx         0120  8  88 A4 FF 11 00 A9 06 00 
   230)      1076.7  Rx         0102  8  89 80 5B 00 A5 12 00 00 
   231)      1076.9  Rx         0112  8  89 88 FF 17 00 25 27 00 
   232)      1077.1  Rx         0122  8  89 F3 FF 02 00 F9 06 00 
   233)      1078.2  Rx         0100  8  89 47 5E 00 A3 EF FF 00 
   234)      1078.4  Rx         0110  8  89 E5 FC 92 00 B1 26 00 
   235)      1078.6  Rx         0120  8  89 A5 FF 10 00 AA 06 00 
   236)      1081.7  Rx         0102  8  8A 9F 5C 00 44 1F 00 00 
   237)      1081.9  Rx         0112  8  8A 9C FF 2C 00 21 27 00 
   238)      1082.1  Rx         0122  8  8A F7 FF 05 00 FD 06 00 
   239)      1083.2  Rx         0100  8  8A 0D 5F 00 26 F3 FF 00 
   240)      1083.4  Rx         0110  8  8A E5 FC 92 00 B9 26 00 
   241)      1083.6  Rx         0120  8  8A A5 FF 10 00 AA 06 00 
   242)      1086.7  Rx         0102  8  8B 63 5D 00 E2 27 00 00 
   243)      1086.9  Rx         0112  8  8B 9C FF 2D 00 35 27 00 
   244)      1087.1  Rx         0122  8  8B F5 FF 05 00 FB 06 00 
   245)      1088.1  Rx         0100  8  8B F2 5F 00 36 F7 FF 00 
   246)      1088.4  Rx         0110  8  8B E2 FC 91 00 BE 26 00 
   247)      1088.6  Rx         0120  8  8B A5 FF 10 00 AA 06 00 
   248)      1091.6  Rx         0102  8  8C 52 5C 00 E1 1B 00 00 
   249)      1091.9  Rx         0112  8  8C 9C FF 2D 00 4D 27 00 
   250)      1092.1  Rx         0122  8  8C F5 FF 05 00 FB 06 00 
   251)      1093.1  Rx         0100  8  8C 70 5F 00 E7 F4 FF 00 
   252)      1093.4  Rx         0110  8  8C E2 FC 96 00 C1 26 00 
   253)      1093.6  Rx         0120  8  8C A4 FF 11 00 AA 06 00 
   254)      1096.7  Rx         0102  8  8D 6B 5B 00 B9 11 00 00 
   255)      1096.9  Rx         0112  8  8D 75 FF 2D 00 39 27 00 
   256)      1097.1  Rx         0122  8  8D F5 FF 05 00 FB 06 00 
   257)      1098.2  Rx         0100  8  8D EB 5E 00 8C F2 FF 00 
   258)      1098.4  Rx         0110  8  8D DF FC 94 00 BE 26 00 
   259)      1098.6  Rx         0120  8  8D A4 FF 11 00 A9 06 00 
   260)      1101.7  Rx         0102  8  8E 29 5C 00 13 1A 00 00 
   261)      1101.9  Rx         0112  8  8E 88 FF 2D 00 39 27 00 
   262)      1102.1  Rx         0122  8  8E F5 FF 05 00 FB 06 00 
   263)      1103.2  Rx         0100  8  8E D6 5F 00 B6 F6 FF 00 
   264)      1103.4  Rx         0110  8  8E DD FC 99 00 B6 26 00 
   265)      1103.6  Rx         0120  8  8E A4 FF 11 00 A9 06 00 
   266)      1106.7  Rx         0102  8  8F 10 5D 00 3C 24 00 00 
   267)      1106.9  Rx         0112  8  8F 88 FF 3E 00 12 27 00 
   268)      1107.1  Rx         0122  8  8F F5 FF 07 00 FA 06 00 
   269)      1108.2  Rx         0100  8  8F 4C 60 00 CE F8 FF 00 
   270)      1108.4  Rx         0110  8  8F E0 FC 9C 00 B2 26 00 
   271)      1108.6  Rx         0120  8  8F A4 FF 12 00 A9 06 00 
   272)      1111.7  Rx         0102  8  90 3D 5C 00 F5 1A 00 00 
   273)      1111.9  Rx         0112  8  90 88 FF 2D 00 48 27 00 
   274)      1112.1  Rx         0122  8  90 F3 FF 05 00 F9 06 00 
   275)      1113.1  Rx         0100  8  90 AA 5E 00 65 F1 FF 00 
   276)      1113.4  Rx         0110  8  90 E0 FC 9C 00 B1 26 00 
   277)      1113.6  Rx         0120  8  90 A4 FF 12 00 A9 06 00 
   278)      1116.6  Rx         0102  8  91 A3 5B 00 2F 14 00 00 
   279)      1116.9  Rx         0112  8  91 74 FF 17 00 21 27 00 
   280)      1117.1  Rx         0122  8  91 F1 FF 02 00 F7 06 00 
   281)      1118.1  Rx         0100  8  91 CF 5D 00 83 ED FF 00 
   282)      1118.4  Rx         0110  8  91 E4 FC A3 00 B1 26 00 
   283)      1118.6  Rx         0120  8  91 A5 FF 12 00 A9 06 00 
   284)      1121.6  Rx         0102  8  92 8E 5C 00 84 1E 00 00 
   285)      1121.9  Rx         0112  8  92 9C FF 2B 00 22 27 00 
   286)      1122.1  Rx         0122  8  92 F3 FF 05 00 F9 06 00 
   287)      1123.2  Rx         0100  8  92 5C 5E 00 03 F0 FF 00 
   288)      1123.4  Rx         0110  8  92 E7 FC A3 00 B1 26 00 
   289)      1123.6  Rx         0120  8  92 A5 FF 12 00 AA 06 00 
   290)      1126.7  Rx         0102  8  93 88 5D 00 83 29 00 00 
   291)      1126.9  Rx         0112  8  93 74 FF 3F 00 22 27 00 
   292)      1127.1  Rx         0122  8  93 F0 FF 07 00 F6 06 00 
   293)      1128.2  Rx         0100  8  93 C1 5F 00 57 F6 FF 00 
   294)      1128.4  Rx         0110  8  93 E5 FC A8 00 B4 26 00 
   295)      1128.6  Rx         0120  8  93 A5 FF 13 00 AA 06 00 
   296)      1131.7  Rx         0102  8  94 43 5C 00 38 1B 00 00 
   297)      1131.9  Rx         0112  8  94 74 FF 2B 00 3A 27 00 
   298)      1132.1  Rx         0122  8  94 EE FF 05 00 F5 06 00 
   299)      1133.2  Rx         0100  8  94 2C 5F 00 B3 F3 FF 00 
   300)      1133.4  Rx         0110  8  94 E4 FC A6 00 B4 26 00 
   301)      1133.6  Rx         0120  8  94 A5 FF 13 00 A9 06 00 
   302)      1136.7  Rx         0102  8  95 81 5B 00 B0 12 00 00 
   303)      1136.9  Rx         0112  8  95 61 FF 18 00 21 27 00 
   304)      1137.1  Rx         0122  8  95 F3 FF 02 00 F9 06 00 
   305)      1138.1  Rx         0100  8  95 08 5F 00 0F F3 FF 00 
   306)      1138.4  Rx         0110  8  95 E4 FC A6 00 AD 26 00 
   307)      1138.6  Rx         0120  8  95 A5 FF 13 00 A9 06 00 
   308)      1141.6  Rx         0102  8  96 39 5C 00 C8 1A 00 00 
   309)      1141.9  Rx         0112  8  96 9C FF 2B 00 22 27 00 
   310)      1142.1  Rx         0122  8  96 F3 FF 05 00 F9 06 00 
   311)      1143.1  Rx         0100  8  96 B6 5F 00 25 F6 FF 00 
   312)      1143.4  Rx         0110  8  96 DF FC A6 00 AD 26 00 
   313)      1143.6  Rx         0120  8  96 A4 FF 13 00 A9 06 00 
   314)      1146.6  Rx         0102  8  97 36 5D 00 E8 25 00 00 
   315)      1146.9  Rx         0112  8  97 9C FF 2D 00 48 27 00 
   316)      1147.1  Rx         0122  8  97 F5 FF 05 00 FB 06 00 
   317)      1148.2  Rx         0100  8  97 02 60 00 7E F7 FF 00 
   318)      1148.4  Rx         0110  8  97 E4 FC A6 00 AF 26 00 
   319)      1148.6  Rx         0120  8  97 A4 FF 13 00 A9 06 00 
   320)      1151.7  Rx         0102  8  98 44 5C 00 43 1B 00 00 
   321)      1151.9  Rx         0112  8  98 75 FF 2C 00 39 27 00 
   322)      1152.1  Rx         0122  8  98 F3 FF 05 00 F9 06 00 
   323)      1153.2  Rx         0100  8  98 EA 5E 00 87 F2 FF 00 
   324)      1153.4  Rx         0110  8  98 E5 FC A8 00 B7 26 00 
   325)      1153.6  Rx         0120  8  98 A5 FF 13 00 AA 06 00 
   326)      1156.7  Rx         0102  8  99 DB 5B 00 A5 16 00 00 
   327)      1156.9  Rx         0112  8  99 88 FF 2D 00 4D 27 00 
   328)      1157.1  Rx         0122  8  99 F1 FF 05 00 F7 06 00 
   329)      1158.2  Rx         0100  8  99 1E 5E 00 E9 EE FF 00 
   330)      1158.4  Rx         0110  8  99 E9 FC A3 00 BE 26 00 
   331)      1158.6  Rx         0120  8  99 A5 FF 12 00 AA 06 00 
   332)      1161.7  Rx         0102  8  9A 61 5C 00 8A 1C 00 00 
   333)      1161.9  Rx         0112  8  9A 88 FF 2C 00 35 27 00 
   334)      1162.1  Rx         0122  8  9A F3 FF 05 00 F9 06 00 
   335)      1163.2  Rx         0100  8  9A 61 5F 00 A3 F4 FF 00 
   336)      1163.4  Rx         0110  8  9A EC FC A3 00 C1 26 00 
   337)      1163.6  Rx         0120  8  9A A6 FF 12 00 AB 06 00 
   338)      1166.6  Rx         0102  8  9B 47 5D 00 A7 26 00 00 
   339)      1166.9  Rx         0112  8  9B 88 FF 2D 00 48 27 00 
   340)      1167.1  Rx         0122  8  9B F3 FF 05 00 F9 06 00 
   341)      1168.2  Rx         0100  8  9B B6 60 00 AF FA FF 00 
   342)      1168.4  Rx         0110  8  9B EC FC A0 00 B9 26 00 
   343)      1168.7  Rx         0120  8  9B A5 FF 12 00 AA 06 00 
   344)      1171.7  Rx         0102  8  9C 18 5C 00 54 19 00 00 
   345)      1171.9  Rx         0112  8  9C AF FF 2C 00 25 27 00 
   346)      1172.2  Rx         0122  8  9C F7 FF 05 00 FD 06 00 
   347)      1173.2  Rx         0100  8  9C F1 5F 00 31 F7 FF 00 
   348)      1173.4  Rx         0110  8  9C EC FC 9C 00 B4 26 00 
   349)      1173.6  Rx         0120  8  9C A6 FF 12 00 AB 06 00 
   350)      1176.7  Rx         0102  8  9D 3F 5B 00 C9 0F 00 00 
   351)      1176.9  Rx         0112  8  9D C3 FF 18 00 21 27 00 
   352)      1177.1  Rx         0122  8  9D F5 FF 02 00 FC 06 00 
   353)      1178.2  Rx         0100  8  9D C9 5E 00 F1 F1 FF 00 
   354)      1178.4  Rx         0110  8  9D EF FC 9B 00 B2 26 00 
   355)      1178.6  Rx         0120  8  9D A6 FF 11 00 AB 06 00 
   356)      1181.7  Rx         0102  8  9E 9F 5C 00 44 1F 00 00 
   357)      1181.9  Rx         0112  8  9E B0 FF 18 00 09 27 00 
   358)      1182.1  Rx         0122  8  9E F7 FF 02 00 FE 06 00 
   359)      1183.2  Rx         0100  8  9E E3 5E 00 67 F2 FF 00 
   360)      1183.4  Rx         0110  8  9E EE FC 9B 00 B1 26 00 
   361)      1183.6  Rx         0120  8  9E A6 FF 11 00 AB 06 00 
   362)      1186.7  Rx         0102  8  9F 7F 5D 00 1D 29 00 00 
   363)      1186.9  Rx         0112  8  9F 88 FF 19 00 34 27 00 
   364)      1187.1  Rx         0122  8  9F F7 FF 02 00 FE 06 00 
   365)      1188.2  Rx         0100  8  9F 3C 5F 00 FB F3 FF 00 
   366)      1188.4  Rx         0110  8  9F EE FC 9B 00 AD 26 00 
   367)      1188.7  Rx         0120  8  9F A6 FF 11 00 AB 06 00 
   368)      1191.7  Rx         0102  8  A0 6C 5C 00 06 1D 00 00 
   369)      1191.9  Rx         0112  8  A0 88 FF 40 00 35 27 00 
   370)      1192.2  Rx         0122  8  A0 F3 FF 07 00 F8 06 00 
   371)      1193.1  Rx         0100  8  A0 0A 5E 00 8E EE FF 00 
   372)      1193.4  Rx         0110  8  A0 EF FC 97 00 B2 26 00 
   373)      1193.7  Rx         0120  8  A0 A6 FF 11 00 AB 06 00 
   374)      1196.7  Rx         0102  8  A1 E0 5B 00 DE 16 00 00 
   375)      1196.9  Rx         0112  8  A1 9C FF 19 00 48 27 00 
   376)      1197.2  Rx         0122  8  A1 F3 FF 02 00 FA 06 00 
   377)      1198.2  Rx         0100  8  A1 10 5E 00 AA EE FF 00 
   378)      1198.4  Rx         0110  8  A1 EE FC 97 00 B6 26 00 
   379)      1198.6  Rx         0120  8  A1 A6 FF 11 00 AB 06 00 
   380)      1201.7  Rx         0102  8  A2 54 5C 00 F8 1B 00 00 
   381)      1201.9  Rx         0112  8  A2 75 FF 17 00 10 27 00 
   382)      1202.1  Rx         0122  8  A2 F5 FF 02 00 FC 06 00 
   383)      1203.2  Rx         0100  8  A2 66 5F 00 BA F4 FF 00 
   384)      1203.4  Rx         0110  8  A2 E9 FC 9B 00 B9 26 00 
   385)      1203.6  Rx         0120  8  A2 A5 FF 11 00 AB 06 00 
   386)      1206.7  Rx         0102  8  A3 07 5D 00 D7 23 00 00 
   387)      1206.9  Rx         0112  8  A3 9C FF 2D 00 39 27 00 
   388)      1207.1  Rx         0122  8  A3 F5 FF 05 00 FB 06 00 
   389)      1208.2  Rx         0100  8  A3 CD 60 00 18 FB FF 00 
   390)      1208.4  Rx         0110  8  A3 E7 FC 97 00 BB 26 00 
   391)      1208.6  Rx         0120  8  A3 A5 FF 11 00 AA 06 00 
   392)      1211.7  Rx         0102  8  A4 EE 5B 00 7B 17 00 00 
   393)      1211.9  Rx         0112  8  A4 88 FF 18 00 20 27 00 
   394)      1212.1  Rx         0122  8  A4 F5 FF 02 00 FC 06 00 
   395)      1213.2  Rx         0100  8  A4 07 60 00 95 F7 FF 00 
   396)      1213.4  Rx         0110  8  A4 E2 FC 9C 00 BC 26 00 
   397)      1213.6  Rx         0120  8  A4 A5 FF 12 00 AA 06 00 
   398)      1216.7  Rx         0102  8  A5 5A 5B 00 F9 10 00 00 
   399)      1216.9  Rx         0112  8  A5 9C FF 19 00 34 27 00 
   400)      1217.2  Rx         0122  8  A5 F5 FF 02 00 FC 06 00 
   401)      1218.1  Rx         0100  8  A5 27 5F 00 9C F3 FF 00 
   402)      1218.4  Rx         0110  8  A5 E5 FC 9E 00 B9 26 00 
   403)      1218.6  Rx         0120  8  A5 A5 FF 12 00 AA 06 00 
   404)      1221.7  Rx         0102  8  A6 6B 5C 00 FA 1C 00 00 
   405)      1221.9  Rx         0112  8  A6 9C FF 18 00 21 27 00 
   406)      1222.2  Rx         0122  8  A6 F5 FF 02 00 FC 06 00 
   407)      1223.2  Rx         0100  8  A6 37 5F 00 E5 F3 FF 00 
   408)      1223.4  Rx         0110  8  A6 E2 FC A0 00 BC 26 00 
   409)      1223.7  Rx         0120  8  A6 A5 FF 12 00 AA 06 00 
   410)      1226.7  Rx         0102  8  A7 75 5D 00 AD 28 00 00 
   411)      1226.9  Rx         0112  8  A7 9C FF 2C 00 35 27 00 
   412)      1227.2  Rx         0122  8  A7 F3 FF 05 00 F9 06 00 
   413)      1228.2  Rx         0100  8  A7 9A 5F 00 A6 F5 FF 00 
   414)      1228.4  Rx         0110  8  A7 E2 FC A0 00 B6 26 00 
   415)      1228.6  Rx         0120  8  A7 A4 FF 12 00 A9 06 00 
   416)      1231.7  Rx         0102  8  A8 9A 5C 00 0C 1F 00 00 
   417)      1231.9  Rx         0112  8  A8 AF FF 40 00 39 27 00 
   418)      1232.1  Rx         0122  8  A8 F5 FF 07 00 FA 06 00 
   419)      1233.2  Rx         0100  8  A8 A2 5E 00 40 F1 FF 00 
   420)      1233.4  Rx         0110  8  A8 E2 FC A5 00 B6 26 00 
   421)      1233.6  Rx         0120  8  A8 A4 FF 12 00 A9 06 00 
   422)      1236.7  Rx         0102  8  A9 8B 5B 00 21 13 00 00 
   423)      1236.9  Rx         0112  8  A9 9C FF 40 00 36 27 00 
   424)      1237.1  Rx         0122  8  A9 F1 FF 07 00 F6 06 00 
   425)      1238.2  Rx         0100  8  A9 09 5E 00 8A EE FF 00 
   426)      1238.4  Rx         0110  8  A9 DF FC A0 00 AF 26 00 
   427)      1238.6  Rx         0120  8  A9 A4 FF 12 00 A9 06 00 
   428)      1241.7  Rx         0102  8  AA 9A 5C 00 0C 1F 00 00 
   429)      1241.9  Rx         0112  8  AA 75 FF 19 00 48 27 00 
   430)      1242.2  Rx         0122  8  AA EE FF 02 00 F5 06 00 
   431)      1243.2  Rx         0100  8  AA E8 5E 00 7E F2 FF 00 
   432)      1243.4  Rx         0110  8  AA DB FC A3 00 AC 26 00 
   433)      1243.6  Rx         0120  8  AA A4 FF 13 00 A8 06 00 
   434)      1246.7  Rx         0102  8  AB 59 5D 00 72 27 00 00 
   435)      1246.9  Rx         0112  8  AB 75 FF 17 00 0E 27 00 
   436)      1247.2  Rx         0122  8  AB F0 FF 02 00 F7 06 00 
   437)      1248.2  Rx         0100  8  AB 3E 60 00 8F F8 FF 00 
   438)      1248.4  Rx         0110  8  AB DD FC A5 00 AA 26 00 
   439)      1248.7  Rx         0120  8  AB A4 FF 13 00 A9 06 00 
   440)      1251.7  Rx         0102  8  AC 23 5C 00 D0 19 00 00 
   441)      1251.9  Rx         0112  8  AC 9C FF 2C 00 39 27 00 
   442)      1252.2  Rx         0122  8  AC F3 FF 05 00 F9 06 00 
   443)      1253.2  Rx         0100  8  AC 26 5F 00 98 F3 FF 00 
   444)      1253.4  Rx         0110  8  AC DB FC A5 00 AA 26 00 
   445)      1253.6  Rx         0120  8  AC A4 FF 13 00 A8 06 00 
   446)      1256.7  Rx         0102  8  AD 93 5B 00 7B 13 00 00 
   447)      1256.9  Rx         0112  8  AD B0 FF 2C 00 22 27 00 
   448)      1257.1  Rx         0122  8  AD F5 FF 05 00 FB 06 00 
   449)      1258.2  Rx         0100  8  AD 0B 5E 00 93 EE FF 00 
   450)      1258.4  Rx         0110  8  AD DB FC A5 00 AF 26 00 
   451)      1258.6  Rx         0120  8  AD A4 FF 13 00 A8 06 00 
   452)      1261.7  Rx         0102  8  AE 9C 5C 00 22 1F 00 00 
   453)      1261.9  Rx         0112  8  AE 88 FF 18 00 21 27 00 
   454)      1262.1  Rx         0122  8  AE F5 FF 02 00 FC 06 00 
   455)      1263.2  Rx         0100  8  AE D7 5E 00 31 F2 FF 00 
   456)      1263.4  Rx         0110  8  AE DF FC A3 00 B7 26 00 
   457)      1263.6  Rx         0120  8  AE A4 FF 12 00 A9 06 00 
   458)      1266.7  Rx         0102  8  AF 51 5D 00 18 27 00 00 
   459)      1266.9  Rx         0112  8  AF 74 FF 19 00 4D 27 00 
   460)      1267.2  Rx         0122  8  AF F1 FF 02 00 F7 06 00 
   461)      1268.2  Rx         0100  8  AF B9 5F 00 33 F6 FF 00 
   462)      1268.4  Rx         0110  8  AF E0 FC A1 00 B7 26 00 
   463)      1268.7  Rx         0120  8  AF A4 FF 12 00 A9 06 00 
   464)      1271.7  Rx         0102  8  B0 3C 5C 00 E9 1A 00 00 
   465)      1271.9  Rx         0112  8  B0 75 FF 19 00 5C 27 00 
   466)      1272.2  Rx         0122  8  B0 F1 FF 02 00 F7 06 00 
   467)      1273.2  Rx         0100  8  B0 20 5F 00 7C F3 FF 00 
   468)      1273.4  Rx         0110  8  B0 DD FC A0 00 BB 26 00 
   469)      1273.7  Rx         0120  8  B0 A4 FF 12 00 A9 06 00 
   470)      1276.7  Rx         0102  8  B1 AE 5B 00 AB 14 00 00 
   471)      1276.9  Rx         0112  8  B1 9C FF 2D 00 4D 27 00 
   472)      1277.2  Rx         0122  8  B1 F5 FF 05 00 FB 06 00 
   473)      1278.2  Rx         0100  8  B1 E3 5E 00 67 F2 FF 00 
   474)      1278.4  Rx         0110  8  B1 DF FC 9E 00 B7 26 00 
   475)      1278.6  Rx         0120  8  B1 A4 FF 12 00 A9 06 00 
   476)      1281.7  Rx         0102  8  B2 4C 5C 00 9D 1B 00 00 
   477)      1281.9  Rx         0112  8  B2 AF FF 54 00 3A 27 00 
   478)      1282.1  Rx         0122  8  B2 F9 FF 09 00 FC 06 00 
   479)      1283.2  Rx         0100  8  B2 98 5F 00 9D F5 FF 00 
   480)      1283.4  Rx         0110  8  B2 E0 FC 9E 00 B4 26 00 
   481)      1283.6  Rx         0120  8  B2 A4 FF 12 00 A9 06 00 
   482)      1286.7  Rx         0102  8  B3 09 5D 00 ED 23 00 00 
   483)      1286.9  Rx         0112  8  B3 88 FF 18 00 21 27 00 
   484)      1287.2  Rx         0122  8  B3 F5 FF 02 00 FC 06 00 
   485)      1288.2  Rx         0100  8  B3 41 60 00 9C F8 FF 00 
   486)      1288.4  Rx         0110  8  B3 E5 FC A0 00 B2 26 00 
   487)      1288.6  Rx         0120  8  B3 A5 FF 12 00 AA 06 00 
   488)      1291.7  Rx         0102  8  B4 3C 5C 00 E9 1A 00 00 
   489)      1291.9  Rx         0112  8  B4 AF FF 18 00 25 27 00 
   490)      1292.2  Rx         0122  8  B4 F5 FF 02 00 FC 06 00 
   491)      1293.2  Rx         0100  8  B4 06 5F 00 06 F3 FF 00 
   492)      1293.4  Rx         0110  8  B4 EA FC 9B 00 B4 26 00 
   493)      1293.7  Rx         0120  8  B4 A5 FF 11 00 AA 06 00 
   494)      1296.7  Rx         0102  8  B5 B7 5B 00 10 15 00 00 
   495)      1296.9  Rx         0112  8  B5 88 FF 19 00 34 27 00 
   496)      1297.2  Rx         0122  8  B5 F5 FF 02 00 FC 06 00 
   497)      1298.2  Rx         0100  8  B5 D1 5D 00 8C ED FF 00 
   498)      1298.4  Rx         0110  8  B5 EA FC 9B 00 B6 26 00 
   499)      1298.7  Rx         0120  8  B5 A5 FF 11 00 AA 06 00 
   500)      1301.7  Rx         0102  8  B6 C1 5C 00 C3 20 00 00 
   501)      1301.9  Rx         0112  8  B6 C2 FF 2C 00 25 27 00 
   502)      1302.2  Rx         0122  8  B6 F7 FF 05 00 FD 06 00 
   503)      1303.2  Rx         0100  8  B6 E4 5E 00 6C F2 FF 00 
   504)      1303.4  Rx         0110  8  B6 EE FC 97 00 B1 26 00 
   505)      1303.7  Rx         0120  8  B6 A6 FF 11 00 AB 06 00 
   506)      1306.7  Rx         0102  8  B7 57 5D 00 5B 27 00 00 
   507)      1306.9  Rx         0112  8  B7 88 FF 19 00 48 27 00 
   508)      1307.1  Rx         0122  8  B7 F3 FF 02 00 FA 06 00 
   509)      1308.2  Rx         0100  8  B7 E0 5F 00 E4 F6 FF 00 
   510)      1308.4  Rx         0110  8  B7 EE FC 96 00 B1 26 00 
   511)      1308.6  Rx         0120  8  B7 A6 FF 11 00 AB 06 00 
   512)      1311.7  Rx         0102  8  B8 4B 5C 00 92 1B 00 00 
   513)      1311.9  Rx         0112  8  B8 88 FF 18 00 1D 27 00 
   514)      1312.2  Rx         0122  8  B8 F5 FF 02 00 FC 06 00 
   515)      1313.2  Rx         0100  8  B8 6B 5F 00 D1 F4 FF 00 
   516)      1313.4  Rx         0110  8  B8 E9 FC 97 00 B4 26 00 
   517)      1313.6  Rx         0120  8  B8 A5 FF 11 00 AA 06 00 
   518)      1316.7  Rx         0102  8  B9 84 5B 00 D2 12 00 00 
   519)      1316.9  Rx         0112  8  B9 9D FF 19 00 34 27 00 
   520)      1317.2  Rx         0122  8  B9 F7 FF 02 00 FE 06 00 
   521)      1318.2  Rx         0100  8  B9 96 5E 00 0A F1 FF 00 
   522)      1318.4  Rx         0110  8  B9 EA FC 99 00 AF 26 00 
   523)      1318.7  Rx         0120  8  B9 A5 FF 11 00 AA 06 00 
   524)      1321.7  Rx         0102  8  BA 3B 5C 00 DE 1A 00 00 
   525)      1321.9  Rx         0112  8  BA 75 FF 2C 00 35 27 00 
   526)      1322.2  Rx         0122  8  BA F1 FF 05 00 F7 06 00 
   527)      1323.2  Rx         0100  8  BA 8E 5F 00 70 F5 FF 00 
   528)      1323.4  Rx         0110  8  BA E9 FC 9C 00 B4 26 00 
   529)      1323.7  Rx         0120  8  BA A5 FF 12 00 AA 06 00 
   530)      1326.7  Rx         0102  8  BB 07 5D 00 D7 23 00 00 
   531)      1326.9  Rx         0112  8  BB 75 FF 2B 00 0E 27 00 
   532)      1327.2  Rx         0122  8  BB F5 FF 05 00 FB 06 00 
   533)      1328.2  Rx         0100  8  BB FC 5F 00 63 F7 FF 00 
   534)      1328.4  Rx         0110  8  BB EC FC 9E 00 B7 26 00 
   535)      1328.7  Rx         0120  8  BB A5 FF 12 00 AA 06 00 
   536)      1331.7  Rx         0102  8  BC 5A 5C 00 3B 1C 00 00 
   537)      1331.9  Rx         0112  8  BC 9C FF 19 00 34 27 00 
   538)      1332.2  Rx         0122  8  BC F5 FF 02 00 FC 06 00 
   539)      1333.2  Rx         0100  8  BC FA 5E 00 D0 F2 FF 00 
   540)      1333.4  Rx         0110  8  BC EE FC A0 00 BB 26 00 
   541)      1333.6  Rx         0120  8  BC A6 FF 12 00 AB 06 00 
   542)      1336.7  Rx         0102  8  BD A7 5B 00 5C 14 00 00 
   543)      1336.9  Rx         0112  8  BD 9C FF 41 00 60 27 00 
   544)      1337.2  Rx         0122  8  BD F5 FF 07 00 FA 06 00 
   545)      1338.2  Rx         0100  8  BD 47 5E 00 A3 EF FF 00 
   546)      1338.4  Rx         0110  8  BD EA FC A0 00 BB 26 00 
   547)      1338.7  Rx         0120  8  BD A5 FF 12 00 AA 06 00 
   548)      1341.7  Rx         0102  8  BE 55 5C 00 03 1C 00 00 
   549)      1341.9  Rx         0112  8  BE 88 FF 2D 00 5D 27 00 
   550)      1342.2  Rx         0122  8  BE F1 FF 05 00 F7 06 00 
   551)      1343.2  Rx         0100  8  BE 95 5F 00 8F F5 FF 00 
   552)      1343.4  Rx         0110  8  BE EA FC A5 00 BB 26 00 
   553)      1343.7  Rx         0120  8  BE A5 FF 12 00 AA 06 00 
   554)      1346.7  Rx         0102  8  BF DF 5C 00 14 22 00 00 
   555)      1347.0  Rx         0112  8  BF 74 FF 18 00 39 27 00 
   556)      1347.2  Rx         0122  8  BF F1 FF 02 00 F7 06 00 
   557)      1348.2  Rx         0100  8  BF A3 60 00 59 FA FF 00 
   558)      1348.4  Rx         0110  8  BF EC FC A3 00 BB 26 00 
   559)      1348.7  Rx         0120  8  BF A6 FF 12 00 AA 06 00 
   560)      1351.7  Rx         0102  8  C0 F5 5B 00 CA 17 00 00 
   561)      1351.9  Rx         0112  8  C0 74 FF 19 00 34 27 00 
   562)      1352.2  Rx         0122  8  C0 F5 FF 02 00 FC 06 00 
   563)      1353.2  Rx         0100  8  C0 B3 5F 00 18 F6 FF 00 
   564)      1353.4  Rx         0110  8  C0 E5 FC A3 00 B6 26 00 
   565)      1353.7  Rx         0120  8  C0 A5 FF 12 00 AA 06 00 
   566)      1356.7  Rx         0102  8  C1 82 5B 00 BC 12 00 00 
   567)      1356.9  Rx         0112  8  C1 9C FF 2D 00 38 27 00 
   568)      1357.2  Rx         0122  8  C1 F5 FF 05 00 FB 06 00 
   569)      1358.2  Rx         0100  8  C1 CC 5E 00 FF F1 FF 00 
   570)      1358.4  Rx         0110  8  C1 E5 FC A3 00 B7 26 00 
   571)      1358.6  Rx         0120  8  C1 A5 FF 12 00 AA 06 00 
   572)      1361.7  Rx         0102  8  C2 77 5C 00 82 1D 00 00 
   573)      1361.9  Rx         0112  8  C2 89 FF 2C 00 35 27 00 
   574)      1362.2  Rx         0122  8  C2 F1 FF 05 00 F7 06 00 
   575)      1363.2  Rx         0100  8  C2 EF 5E 00 9E F2 FF 00 
   576)      1363.4  Rx         0110  8  C2 E4 FC A5 00 B4 26 00 
   577)      1363.7  Rx         0120  8  C2 A5 FF 12 00 AA 06 00 
   578)      1366.7  Rx         0102  8  C3 90 5D 00 DD 29 00 00 
   579)      1366.9  Rx         0112  8  C3 75 FF 3F 00 27 27 00 
   580)      1367.2  Rx         0122  8  C3 F3 FF 07 00 F8 06 00 
   581)      1368.2  Rx         0100  8  C3 73 5F 00 F5 F4 FF 00 
   582)      1368.4  Rx         0110  8  C3 E4 FC A5 00 AF 26 00 
   583)      1368.7  Rx         0120  8  C3 A5 FF 13 00 A9 06 00 
   584)      1371.7  Rx         0102  8  C4 92 5C 00 B1 1E 00 00 
   585)      1371.9  Rx         0112  8  C4 74 FF 17 00 21 27 00 
   586)      1372.2  Rx         0122  8  C4 F1 FF 02 00 F7 06 00 
   587)      1373.2  Rx         0100  8  C4 85 5E 00 BD F0 FF 00 
   588)      1373.4  Rx         0110  8  C4 E4 FC A5 00 B1 26 00 
   589)      1373.7  Rx         0120  8  C4 A5 FF 13 00 AA 06 00 
   590)      1376.7  Rx         0102  8  C5 D2 5B 00 40 16 00 00 
   591)      1377.0  Rx         0112  8  C5 89 FF 19 00 34 27 00 
   592)      1377.2  Rx         0122  8  C5 F5 FF 02 00 FC 06 00 
   593)      1378.2  Rx         0100  8  C5 FC 5D 00 4F EE FF 00 
   594)      1378.4  Rx         0110  8  C5 E5 FC A3 00 B2 26 00 
   595)      1378.7  Rx         0120  8  C5 A5 FF 12 00 AA 06 00 
   596)      1381.7  Rx         0102  8  C6 5E 5C 00 68 1C 00 00 
   597)      1381.9  Rx         0112  8  C6 75 FF 19 00 35 27 00 
   598)      1382.2  Rx         0122  8  C6 F3 FF 02 00 F9 06 00 
   599)      1383.2  Rx         0100  8  C6 44 5F 00 20 F4 FF 00 
   600)      1383.4  Rx         0110  8  C6 E2 FC A1 00 B4 26 00 
   601)      1383.7  Rx         0120  8  C6 A4 FF 12 00 A9 06 00 
   602)      1386.7  Rx         0102  8  C7 51 5D 00 18 27 00 00 
   603)      1386.9  Rx         0112  8  C7 75 FF 19 00 48 27 00 
   604)      1387.2  Rx         0122  8  C7 F1 FF 02 00 F7 06 00 
   605)      1388.2  Rx         0100  8  C7 90 60 00 03 FA FF 00 
   606)      1388.4  Rx         0110  8  C7 E2 FC 9C 00 B4 26 00 
   607)      1388.6  Rx         0040  1  00 
   608)      1388.8  Rx         0120  8  C7 A4 FF 12 00 A9 06 00 
   609)      1394.4  Rx         0102  8  00 52 5C 00 E1 1B 00 00 
   610)      1394.7  Rx         0112  8  00 88 FF 19 00 4B 27 00 
   611)      1394.9  Rx         0122  8  00 F1 FF 02 00 F7 06 00 
   612)      1395.9  Rx         0100  8  00 BB 5F 00 3C F6 FF 00 
   613)      1396.2  Rx         0110  8  00 E2 FC 9E 00 B2 26 00 
   614)      1396.4  Rx         0120  8  00 A4 FF 12 00 A9 06 00 
   615)      1399.4  Rx         0102  8  01 9D 5B 00 EB 13 00 00 
   616)      1399.7  Rx         0112  8  01 88 FF 41 00 4D 27 00 
   617)      1399.9  Rx         0122  8  01 F5 FF 07 00 FA 06 00 
   618)      1400.9  Rx         0100  8  01 67 5F 00 BF F4 FF 00 
   619)      1401.2  Rx         0110  8  01 DF FC 9E 00 B4 26 00 
   620)      1401.4  Rx         0120  8  01 A4 FF 12 00 A9 06 00 
   621)      1404.4  Rx         0102  8  02 88 5C 00 41 1E 00 00 
   622)      1404.7  Rx         0112  8  02 9C FF 40 00 35 27 00 
   623)      1404.9  Rx         0122  8  02 F5 FF 07 00 FA 06 00 
   624)      1405.9  Rx         0100  8  02 8B 5F 00 62 F5 FF 00 
   625)      1406.2  Rx         0110  8  02 E2 FC 99 00 B7 26 00 
   626)      1406.4  Rx         0120  8  02 A5 FF 11 00 AA 06 00 
   627)      1409.4  Rx         0102  8  03 45 5D 00 91 26 00 00 
   628)      1409.7  Rx         0112  8  03 88 FF 19 00 37 27 00 
   629)      1409.9  Rx         0122  8  03 F7 FF 02 00 FE 06 00 
   630)      1411.0  Rx         0100  8  03 C9 5E 00 F1 F1 FF 00 
   631)      1411.2  Rx         0110  8  03 E0 FC 99 00 B9 26 00 
   632)      1411.4  Rx         0120  8  03 A4 FF 11 00 A9 06 00 
   633)      1414.5  Rx         0102  8  04 41 5C 00 22 1B 00 00 
   634)      1414.7  Rx         0112  8  04 AF FF 2C 00 25 27 00 
   635)      1414.9  Rx         0122  8  04 F7 FF 05 00 FD 06 00 
   636)      1415.9  Rx         0100  8  04 66 5E 00 30 F0 FF 00 
   637)      1416.2  Rx         0110  8  04 E2 FC 96 00 B6 26 00 
   638)      1416.4  Rx         0120  8  04 A4 FF 11 00 AA 06 00 
   639)      1419.4  Rx         0102  8  05 CE 5B 00 13 16 00 00 
   640)      1419.7  Rx         0112  8  05 88 FF 40 00 3A 27 00 
   641)      1419.9  Rx         0122  8  05 F3 FF 07 00 F8 06 00 
   642)      1420.9  Rx         0100  8  05 52 5F 00 5F F4 FF 00 
   643)      1421.2  Rx         0110  8  05 DF FC 96 00 B2 26 00 
   644)      1421.4  Rx         0120  8  05 A4 FF 11 00 A9 06 00 
   645)      1424.4  Rx         0102  8  06 7C 5C 00 BA 1D 00 00 
   646)      1424.7  Rx         0112  8  06 9B FF 2D 00 39 27 00 
   647)      1424.9  Rx         0122  8  06 F5 FF 05 00 FB 06 00 
   648)      1425.9  Rx         0100  8  06 22 60 00 0F F8 FF 00 
   649)      1426.2  Rx         0110  8  06 E2 FC 92 00 B2 26 00 
   650)      1426.4  Rx         0120  8  06 A4 FF 10 00 AA 06 00 
   651)      1428.7  Rx         0180  8  24 01 00 00 00 00 00 00 
   652)      1429.4  Rx         0102  8  07 33 5D 00 C6 25 00 00 
   653)      1429.7  Rx         0112  8  07 88 FF 18 00 21 27 00 
   654)      1429.9  Rx         0122  8  07 F3 FF 02 00 F9 06 00 
   655)      1431.0  Rx         0100  8  07 7E 5F 00 27 F5 FF 00 
   656)      1431.2  Rx         0110  8  07 E2 FC 99 00 B2 26 00 
   657)      1431.4  Rx         0120  8  07 A4 FF 11 00 AA 06 00 
   658)      1434.5  Rx         0102  8  08 38 5C 00 BC 1A 00 00 
   659)      1434.7  Rx         0112  8  08 9C FF 2C 00 35 27 00 
   660)      1434.9  Rx         0122  8  08 F3 FF 05 00 F9 06 00 
   661)      1436.0  Rx         0100  8  08 A6 5E 00 53 F1 FF 00 
   662)      1436.2  Rx         0110  8  08 E5 FC 99 00 B1 26 00 
   663)      1436.4  Rx         0120  8  08 A5 FF 11 00 AA 06 00 
   664)      1439.5  Rx         0102  8  09 BC 5B 00 48 15 00 00 
   665)      1439.7  Rx         0112  8  09 B0 FF 2D 00 45 27 00 
   666)      1439.9  Rx         0122  8  09 F3 FF 05 00 F9 06 00 
   667)      1440.9  Rx         0100  8  09 CA 5E 00 F6 F1 FF 00 
   668)      1441.2  Rx         0110  8  09 E4 FC 99 00 B2 26 00 
   669)      1441.4  Rx         0120  8  09 A5 FF 11 00 AA 06 00 
   670)      1444.4  Rx         0102  8  0A 7A 5C 00 A3 1D 00 00 
   671)      1444.7  Rx         0112  8  0A 74 FF 2B 00 22 27 00 
   672)      1444.9  Rx         0122  8  0A F1 FF 05 00 F7 06 00 
   673)      1445.9  Rx         0100  8  0A 36 5F 00 E0 F3 FF 00 
   674)      1446.2  Rx         0110  8  0A E5 FC 9E 00 B6 26 00 
   675)      1446.4  Rx         0120  8  0A A5 FF 12 00 AA 06 00 
   676)      1449.4  Rx         0102  8  0B 08 5D 00 E2 23 00 00 
   677)      1449.7  Rx         0112  8  0B 88 FF 2D 00 35 27 00 
   678)      1449.9  Rx         0122  8  0B F7 FF 05 00 FD 06 00 
   679)      1451.0  Rx         0100  8  0B FD 5E 00 DD F2 FF 00 
   680)      1451.2  Rx         0110  8  0B E2 FC A1 00 BC 26 00 
   681)      1451.4  Rx         0120  8  0B A4 FF 12 00 A9 06 00 
   682)      1454.4  Rx         0102  8  0C 4B 5C 00 92 1B 00 00 
   683)      1454.7  Rx         0112  8  0C 9C FF 54 00 3A 27 00 
   684)      1454.9  Rx         0122  8  0C F7 FF 09 00 FA 06 00 
   685)      1456.0  Rx         0100  8  0C FF 5E 00 E7 F2 FF 00 
   686)      1456.2  Rx         0110  8  0C E4 FC A3 00 B9 26 00 
   687)      1456.4  Rx         0120  8  0C A5 FF 12 00 AA 06 00 
   688)      1459.5  Rx         0102  8  0D 93 5B 00 7B 13 00 00 
   689)      1459.7  Rx         0112  8  0D 9C FF 41 00 49 27 00 
   690)      1459.9  Rx         0122  8  0D F5 FF 07 00 FA 06 00 
   691)      1461.0  Rx         0100  8  0D B6 5F 00 25 F6 FF 00 
   692)      1461.2  Rx         0110  8  0D E0 FC A3 00 B6 26 00 
   693)      1461.4  Rx         0120  8  0D A4 FF 12 00 A9 06 00 
   694)      1464.5  Rx         0102  8  0E 4E 5C 00 B4 1B 00 00 
   695)      1464.7  Rx         0112  8  0E 88 FF 40 00 36 27 00 
   696)      1464.9  Rx         0122  8  0E F3 FF 07 00 F8 06 00 
   697)      1466.0  Rx         0100  8  0E D1 5F 00 A0 F6 FF 00 
   698)      1466.2  Rx         0110  8  0E E7 FC A1 00 B2 26 00 
   699)      1466.4  Rx         0120  8  0E A5 FF 12 00 AA 06 00 
   700)      1469.5  Rx         0102  8  0F CB 5C 00 33 21 00 00 
   701)      1469.7  Rx         0112  8  0F 88 FF 2D 00 48 27 00 
   702)      1469.9  Rx         0122  8  0F F3 FF 05 00 F9 06 00 
   703)      1471.0  Rx         0100  8  0F 21 5F 00 81 F3 FF 00 
   704)      1471.2  Rx         0110  8  0F E4 FC A8 00 B6 26 00 
   705)      1471.5  Rx         0120  8  0F A5 FF 13 00 A9 06 00 
   706)      1474.4  Rx         0102  8  10 18 5C 00 54 19 00 00 
   707)      1474.7  Rx         0112  8  10 75 FF 18 00 21 27 00 
   708)      1475.0  Rx         0122  8  10 F3 FF 02 00 F9 06 00 
   709)      1476.0  Rx         0100  8  10 A0 5E 00 37 F1 FF 00 
   710)      1476.2  Rx         0110  8  10 E7 FC A5 00 B9 26 00 
   711)      1476.4  Rx         0120  8  10 A5 FF 13 00 AA 06 00 
   712)      1479.5  Rx         0102  8  11 C9 5B 00 DB 15 00 00 
   713)      1479.7  Rx         0112  8  11 9C FF 18 00 25 27 00 
   714)      1479.9  Rx         0122  8  11 F5 FF 02 00 FC 06 00 
   715)      1481.0  Rx         0100  8  11 D7 5E 00 31 F2 FF 00 
   716)      1481.2  Rx         0110  8  11 E9 FC A8 00 B4 26 00 
   717)      1481.4  Rx         0120  8  11 A5 FF 13 00 AA 06 00 
   718)      1484.5  Rx         0102  8  12 74 5C 00 60 1D 00 00 
   719)      1484.7  Rx         0112  8  12 9C FF 41 00 49 27 00 
   720)      1484.9  Rx         0122  8  12 F5 FF 07 00 FA 06 00 
   721)      1486.0  Rx         0100  8  12 80 5F 00 30 F5 FF 00 
   722)      1486.2  Rx         0110  8  12 E9 FC A5 00 B4 26 00 
   723)      1486.4  Rx         0120  8  12 A5 FF 13 00 AA 06 00 
   724)      1489.5  Rx         0102  8  13 EB 5C 00 9B 22 00 00 
   725)      1489.7  Rx         0112  8  13 88 FF 2B 00 22 27 00 
   726)      1489.9  Rx         0122  8  13 F3 FF 05 00 F9 06 00 
   727)      1491.0  Rx         0100  8  13 4F 5F 00 52 F4 FF 00 
   728)      1491.2  Rx         0110  8  13 E7 FC A6 00 B9 26 00 
   729)      1491.4  Rx         0120  8  13 A5 FF 13 00 AA 06 00 
   730)      1494.5  Rx         0102  8  14 32 5C 00 79 1A 00 00 
   731)      1494.7  Rx         0112  8  14 88 FF 2B 00 26 27 00 
   732)      1494.9  Rx         0122  8  14 F0 FF 05 00 F7 06 00 
   733)      1495.9  Rx         0100  8  14 32 5F 00 CE F3 FF 00 
   734)      1496.2  Rx         0110  8  14 E7 FC A3 00 B9 26 00 
   735)      1496.4  Rx         0120  8  14 A5 FF 12 00 AA 06 00 
   736)      1499.5  Rx         0102  8  15 D7 5B 00 78 16 00 00 
   737)      1499.7  Rx         0112  8  15 74 FF 2B 00 22 27 00 
   738)      1500.0  Rx         0122  8  15 F3 FF 05 00 F9 06 00 
   739)      1501.0  Rx         0100  8  15 61 5F 00 A3 F4 FF 00 
   740)      1501.2  Rx         0110  8  15 E7 FC A5 00 B7 26 00 
   741)      1501.5  Rx         0120  8  15 A5 FF 13 00 AA 06 00 
   742)      1504.5  Rx         0102  8  16 67 5C 00 CD 1C 00 00 
   743)      1504.7  Rx         0112  8  16 88 FF 53 00 35 27 00 
   744)      1504.9  Rx         0122  8  16 F3 FF 09 00 F7 06 00 
   745)      1506.0  Rx         0100  8  16 AD 5F 00 FC F5 FF 00 
   746)      1506.2  Rx         0110  8  16 E9 FC A1 00 B7 26 00 
   747)      1506.4  Rx         0120  8  16 A5 FF 12 00 AA 06 00 
   748)      1509.5  Rx         0102  8  17 F6 5C 00 17 23 00 00 
   749)      1509.7  Rx         0112  8  17 B0 FF 2D 00 35 27 00 
   750)      1509.9  Rx         0122  8  17 F7 FF 05 00 FD 06 00 
   751)      1511.0  Rx         0100  8  17 2C 5F 00 B3 F3 FF 00 
   752)      1511.2  Rx         0110  8  17 EA FC A0 00 B9 26 00 
   753)      1511.4  Rx         0120  8  17 A5 FF 12 00 AA 06 00 
   754)      1514.5  Rx         0102  8  18 30 5C 00 62 1A 00 00 
   755)      1514.7  Rx         0112  8  18 9C FF 2D 00 4B 27 00 
   756)      1514.9  Rx         0122  8  18 F5 FF 05 00 FB 06 00 
   757)      1516.0  Rx         0100  8  18 CD 5E 00 04 F2 FF 00 
   758)      1516.2  Rx         0110  8  18 EC FC 9C 00 B7 26 00 
   759)      1516.4  Rx         0120  8  18 A5 FF 12 00 AB 06 00 
   760)      1519.5  Rx         0102  8  19 06 5C 00 89 18 00 00 
   761)      1519.7  Rx         0112  8  19 9C FF 17 00 FE 26 00 
   762)      1520.0  Rx         0122  8  19 F5 FF 02 00 FC 06 00 
   763)      1521.0  Rx         0100  8  19 23 5F 00 8A F3 FF 00 
   764)      1521.2  Rx         0110  8  19 E9 FC 9E 00 B9 26 00 
   765)      1521.5  Rx         0120  8  19 A5 FF 12 00 AA 06 00 
   766)      1524.5  Rx         0102  8  1A 7F 5C 00 DC 1D 00 00 
   767)      1524.7  Rx         0112  8  1A 9C FF 2D 00 35 27 00 
   768)      1525.0  Rx         0122  8  1A F5 FF 05 00 FB 06 00 
   769)      1526.0  Rx         0100  8  1A CC 5F 00 89 F6 FF 00 
   770)      1526.2  Rx         0110  8  1A E7 FC 97 00 B1 26 00 
   771)      1526.5  Rx         0120  8  1A A5 FF 11 00 AA 06 00 
   772)      1529.5  Rx         0102  8  1B 0A 5D 00 F8 23 00 00 
   773)      1529.7  Rx         0112  8  1B 9C FF 2B 00 11 27 00 
   774)      1530.0  Rx         0122  8  1B F5 FF 05 00 FB 06 00 
   775)      1531.0  Rx         0100  8  1B A8 5F 00 E6 F5 FF 00 
   776)      1531.2  Rx         0110  8  1B E5 FC 97 00 B6 26 00 
   777)      1531.4  Rx         0120  8  1B A5 FF 11 00 AA 06 00 
   778)      1534.5  Rx         0102  8  1C 5D 5C 00 5D 1C 00 00 
   779)      1534.7  Rx         0112  8  1C B0 FF 41 00 4D 27 00 
   780)      1534.9  Rx         0122  8  1C F5 FF 07 00 FA 06 00 
   781)      1536.0  Rx         0100  8  1C 19 5F 00 5D F3 FF 00 
   782)      1536.2  Rx         0110  8  1C E4 FC 9B 00 B4 26 00 
   783)      1536.4  Rx         0120  8  1C A5 FF 11 00 AA 06 00 
   784)      1539.5  Rx         0102  8  1D E6 5B 00 21 17 00 00 
   785)      1539.7  Rx         0112  8  1D 88 FF 2B 00 22 27 00 
   786)      1540.0  Rx         0122  8  1D F3 FF 05 00 F9 06 00 
   787)      1541.0  Rx         0100  8  1D E1 5E 00 5E F2 FF 00 
   788)      1541.2  Rx         0110  8  1D E0 FC 9C 00 B2 26 00 
   789)      1541.5  Rx         0120  8  1D A4 FF 12 00 A9 06 00 
   790)      1544.5  Rx         0102  8  1E 84 5C 00 14 1E 00 00 
   791)      1544.7  Rx         0112  8  1E 88 FF 2D 00 35 27 00 
   792)      1545.0  Rx         0122  8  1E F5 FF 05 00 FB 06 00 
   793)      1546.0  Rx         0100  8  1E 33 5F 00 D3 F3 FF 00 
   794)      1546.2  Rx         0110  8  1E E5 FC 9B 00 B4 26 00 
   795)      1546.5  Rx         0120  8  1E A5 FF 11 00 AA 06 00 
   796)      1549.5  Rx         0102  8  1F 67 5D 00 0F 28 00 00 
   797)      1549.7  Rx         0112  8  1F 9C FF 19 00 4C 27 00 
   798)      1550.0  Rx         0122  8  1F F5 FF 02 00 FC 06 00 
   799)      1551.0  Rx         0100  8  1F FB 5E 00 D4 F2 FF 00 
   800)      1551.2  Rx         0110  8  1F E5 FC 9E 00 B7 26 00 
   801)      1551.5  Rx         0120  8  1F A5 FF 12 00 AA 06 00 
   802)      1554.5  Rx         0102  8  20 64 5C 00 AC 1C 00 00 
   803)      1554.7  Rx         0112  8  20 9C FF 2B 00 26 27 00 
   804)      1555.0  Rx         0122  8  20 F3 FF 05 00 F9 06 00 
   805)      1556.0  Rx         0100  8  20 E0 5E 00 5A F2 FF 00 
   806)      1556.2  Rx         0110  8  20 E7 FC 9B 00 B4 26 00 
   807)      1556.4  Rx         0120  8  20 A5 FF 11 00 AA 06 00 
   808)      1559.5  Rx         0102  8  21 9B 5B 00 D5 13 00 00 
   809)      1559.7  Rx         0112  8  21 88 FF 2C 00 39 27 00 
   810)      1560.0  Rx         0122  8  21 F3 FF 05 00 F9 06 00 
   811)      1561.0  Rx         0100  8  21 A3 5F 00 CF F5 FF 00 
   812)      1561.2  Rx         0110  8  21 E4 FC 9E 00 B7 26 00 
   813)      1561.5  Rx         0120  8  21 A5 FF 12 00 AA 06 00 
   814)      1564.5  Rx         0102  8  22 40 5C 00 16 1B 00 00 
   815)      1564.7  Rx         0112  8  22 74 FF 17 00 25 27 00 
   816)      1565.0  Rx         0122  8  22 F0 FF 02 00 F7 06 00 
   817)      1566.0  Rx         0100  8  22 F8 5F 00 51 F7 FF 00 
   818)      1566.3  Rx         0110  8  22 E2 FC 9B 00 B7 26 00 
   819)      1566.5  Rx         0120  8  22 A5 FF 11 00 AA 06 00 
   820)      1569.5  Rx         0102  8  23 97 5C 00 EA 1E 00 00 
   821)      1569.7  Rx         0112  8  23 9C FF 2D 00 48 27 00 
   822)      1570.0  Rx         0122  8  23 F5 FF 05 00 FB 06 00 
   823)      1571.0  Rx         0100  8  23 72 5F 00 F1 F4 FF 00 
   824)      1571.3  Rx         0110  8  23 DF FC A0 00 B6 26 00 
   825)      1571.5  Rx         0120  8  23 A4 FF 12 00 A9 06 00 
   826)      1574.5  Rx         0102  8  24 2F 5C 00 57 1A 00 00 
   827)      1574.7  Rx         0112  8  24 88 FF 2C 00 3A 27 00 
   828)      1575.0  Rx         0122  8  24 F0 FF 05 00 F7 06 00 
   829)      1576.0  Rx         0100  8  24 AA 5E 00 65 F1 FF 00 
   830)      1576.2  Rx         0110  8  24 E2 FC A1 00 B4 26 00 
   831)      1576.5  Rx         0120  8  24 A4 FF 12 00 A9 06 00 
   832)      1579.5  Rx         0102  8  25 B6 5B 00 05 15 00 00 
   833)      1579.7  Rx         0112  8  25 75 FF 19 00 48 27 00 
   834)      1580.0  Rx         0122  8  25 F3 FF 02 00 FA 06 00 
   835)      1581.0  Rx         0100  8  25 94 5E 00 01 F1 FF 00 
   836)      1581.2  Rx         0110  8  25 E0 FC A0 00 B2 26 00 
   837)      1581.4  Rx         0120  8  25 A4 FF 12 00 A9 06 00 
   838)      1584.5  Rx         0102  8  26 A3 5C 00 71 1F 00 00 
   839)      1584.7  Rx         0112  8  26 61 FF 17 00 3A 27 00 
   840)      1584.9  Rx         0122  8  26 EC FF 02 00 F3 06 00 
   841)      1586.0  Rx         0100  8  26 4A 5F 00 3B F4 FF 00 
   842)      1586.2  Rx         0110  8  26 E2 FC A3 00 AF 26 00 
   843)      1586.5  Rx         0120  8  26 A4 FF 12 00 A9 06 00 
   844)      1589.5  Rx         0102  8  27 6A 5D 00 31 28 00 00 
   845)      1589.7  Rx         0112  8  27 88 FF 18 00 38 27 00 
   846)      1590.0  Rx         0122  8  27 F3 FF 02 00 FA 06 00 
   847)      1591.0  Rx         0100  8  27 CE 5E 00 08 F2 FF 00 
   848)      1591.2  Rx         0110  8  27 DF FC A6 00 B7 26 00 
   849)      1591.5  Rx         0120  8  27 A4 FF 13 00 A9 06 00 
   850)      1594.5  Rx         0102  8  28 6D 5C 00 11 1D 00 00 
   851)      1594.7  Rx         0112  8  28 88 FF 18 00 39 27 00 
   852)      1595.0  Rx         0122  8  28 F1 FF 02 00 F7 06 00 
   853)      1596.0  Rx         0100  8  28 A0 5E 00 37 F1 FF 00 
   854)      1596.2  Rx         0110  8  28 E0 FC A5 00 B2 26 00 
   855)      1596.5  Rx         0120  8  28 A4 FF 13 00 A9 06 00 
   856)      1599.5  Rx         0102  8  29 D5 5B 00 62 16 00 00 
   857)      1599.7  Rx         0112  8  29 75 FF 2D 00 4D 27 00 
   858)      1600.0  Rx         0122  8  29 F3 FF 05 00 F9 06 00 
   859)      1601.0  Rx         0100  8  29 70 5F 00 E7 F4 FF 00 
   860)      1601.2  Rx         0110  8  29 DF FC A3 00 B2 26 00 
   861)      1601.5  Rx         0120  8  29 A4 FF 12 00 A9 06 00 
   862)      1604.5  Rx         0102  8  2A 82 5C 00 FD 1D 00 00 
   863)      1604.7  Rx         0112  8  2A 88 FF 40 00 4D 27 00 
   864)      1605.0  Rx         0122  8  2A F3 FF 07 00 F8 06 00 
   865)      1606.0  Rx         0100  8  2A A0 5F 00 C1 F5 FF 00 
   866)      1606.2  Rx         0110  8  2A E4 FC A5 00 B2 26 00 
   867)      1606.5  Rx         0120  8  2A A5 FF 12 00 AA 06 00 
   868)      1609.5  Rx         0102  8  2B DE 5C 00 09 22 00 00 
   869)      1609.7  Rx         0112  8  2B 74 FF 41 00 49 27 00 
   870)      1609.9  Rx         0122  8  2B F5 FF 07 00 FA 06 00 
   871)      1611.0  Rx         0100  8  2B 8D 5F 00 6B F5 FF 00 
   872)      1611.2  Rx         0110  8  2B E4 FC A1 00 B2 26 00 
   873)      1611.5  Rx         0120  8  2B A5 FF 12 00 AA 06 00 
   874)      1614.5  Rx         0102  8  2C 31 5C 00 6E 1A 00 00 
   875)      1614.7  Rx         0112  8  2C 9C FF 40 00 32 27 00 
   876)      1615.0  Rx         0122  8  2C F5 FF 07 00 FA 06 00 
   877)      1616.0  Rx         0100  8  2C FE 5E 00 E2 F2 FF 00 
   878)      1616.2  Rx         0110  8  2C E9 FC 9E 00 BB 26 00 
   879)      1616.5  Rx         0120  8  2C A5 FF 12 00 AA 06 00 
   880)      1619.5  Rx         0102  8  2D 8E 5B 00 43 13 00 00 
   881)      1619.7  Rx         0112  8  2D 9C FF 2B 00 22 27 00 
   882)      1620.0  Rx         0122  8  2D F3 FF 05 00 F9 06 00 
   883)      1621.0  Rx         0100  8  2D 47 5F 00 2D F4 FF 00 
   884)      1621.2  Rx         0110  8  2D E7 FC 9E 00 B7 26 00 
   885)      1621.5  Rx         0120  8  2D A5 FF 12 00 AA 06 00 
   886)      1624.5  Rx         0102  8  2E 6C 5C 00 06 1D 00 00 
   887)      1624.8  Rx         0112  8  2E 9C FF 19 00 34 27 00 
   888)      1625.0  Rx         0122  8  2E F5 FF 02 00 FC 06 00 
   889)      1626.0  Rx         0100  8  2E 8A 5F 00 5D F5 FF 00 
   890)      1626.2  Rx         0110  8  2E EC FC 97 00 BB 26 00 
   891)      1626.5  Rx         0120  8  2E A6 FF 11 00 AB 06 00 
   892)      1629.5  Rx         0102  8  2F 44 5D 00 85 26 00 00 
   893)      1629.7  Rx         0112  8  2F 9C FF 19 00 38 27 00 
   894)      1630.0  Rx         0122  8  2F F7 FF 02 00 FE 06 00 
   895)      1631.0  Rx         0100  8  2F 1F 5F 00 78 F3 FF 00 
   896)      1631.2  Rx         0110  8  2F E7 FC 9B 00 BB 26 00 
   897)      1631.5  Rx         0120  8  2F A5 FF 11 00 AA 06 00 
   898)      1634.5  Rx         0102  8  30 4B 5C 00 92 1B 00 00 
   899)      1634.7  Rx         0112  8  30 88 FF 2B 00 22 27 00 
   900)      1635.0  Rx         0122  8  30 F1 FF 05 00 F7 06 00 
   901)      1636.0  Rx         0100  8  30 0F 5F 00 2F F3 FF 00 
   902)      1636.2  Rx         0110  8  30 E9 FC 97 00 B9 26 00 
   903)      1636.5  Rx         0120  8  30 A5 FF 11 00 AA 06 00 
   904)      1639.5  Rx         0102  8  31 B6 5B 00 05 15 00 00 
   905)      1639.7  Rx         0112  8  31 9C FF 2D 00 35 27 00 
   906)      1640.0  Rx         0122  8  31 F5 FF 05 00 FB 06 00 
   907)      1641.0  Rx         0100  8  31 83 5F 00 3E F5 FF 00 
   908)      1641.2  Rx         0110  8  31 E7 FC 9B 00 B7 26 00 
   909)      1641.5  Rx         0120  8  31 A5 FF 11 00 AA 06 00 
   910)      1644.5  Rx         0102  8  32 6A 5C 00 EF 1C 00 00 
   911)      1644.7  Rx         0112  8  32 88 FF 04 00 38 27 00 
   912)      1645.0  Rx         0122  8  32 F3 FF 00 00 FA 06 00 
   913)      1646.0  Rx         0100  8  32 9E 5F 00 B8 F5 FF 00 
   914)      1646.3  Rx         0110  8  32 E5 FC 96 00 B6 26 00 
   915)      1646.5  Rx         0120  8  32 A5 FF 11 00 AA 06 00 
   916)      1649.5  Rx         0102  8  33 CD 5C 00 4A 21 00 00 
   917)      1649.8  Rx         0112  8  33 89 FF 2C 00 39 27 00 
   918)      1650.0  Rx         0122  8  33 F3 FF 05 00 F9 06 00 
   919)      1651.0  Rx         0100  8  33 BD 5E 00 BB F1 FF 00 
   920)      1651.3  Rx         0110  8  33 E5 FC 97 00 B6 26 00 
   921)      1651.5  Rx         0120  8  33 A5 FF 11 00 AA 06 00 
   922)      1654.5  Rx         0102  8  34 0B 5C 00 C2 18 00 00 
   923)      1654.7  Rx         0112  8  34 88 FF 3E 00 FE 26 00 
   924)      1655.0  Rx         0122  8  34 F3 FF 07 00 F8 06 00 
   925)      1656.0  Rx         0100  8  34 8A 5E 00 D3 F0 FF 00 
   926)      1656.2  Rx         0110  8  34 E9 FC 97 00 B2 26 00 
   927)      1656.5  Rx         0120  8  34 A5 FF 11 00 AA 06 00 
   928)      1659.5  Rx         0102  8  35 CC 5B 00 FD 15 00 00 
   929)      1659.7  Rx         0112  8  35 88 FF 41 00 45 27 00 
   930)      1660.0  Rx         0122  8  35 F3 FF 07 00 F8 06 00 
   931)      1661.0  Rx         0100  8  35 CB 5E 00 FA F1 FF 00 
   932)      1661.2  Rx         0110  8  35 E7 FC A1 00 B1 26 00 
   933)      1661.4  Rx         0120  8  35 A5 FF 12 00 AA 06 00 
   934)      1664.5  Rx         0102  8  36 43 5C 00 38 1B 00 00 
   935)      1664.7  Rx         0112  8  36 9C FF 2C 00 22 27 00 
   936)      1665.0  Rx         0122  8  36 F5 FF 05 00 FB 06 00 
   937)      1666.0  Rx         0100  8  36 84 5F 00 42 F5 FF 00 
   938)      1666.2  Rx         0110  8  36 E7 FC 9E 00 B2 26 00 
   939)      1666.5  Rx         0120  8  36 A5 FF 12 00 AA 06 00 
   940)      1669.5  Rx         0102  8  37 07 5D 00 D7 23 00 00 
   941)      1669.7  Rx         0112  8  37 9C FF 17 00 0C 27 00 
   942)      1670.0  Rx         0122  8  37 F3 FF 02 00 FA 06 00 
   943)      1671.0  Rx         0100  8  37 5F 5F 00 9A F4 FF 00 
   944)      1671.3  Rx         0110  8  37 E9 FC A1 00 AD 26 00 
   945)      1671.5  Rx         0120  8  37 A5 FF 12 00 AA 06 00 
   946)      1674.5  Rx         0102  8  38 34 5C 00 8F 1A 00 00 
   947)      1674.7  Rx         0112  8  38 9C FF 40 00 31 27 00 
   948)      1675.0  Rx         0122  8  38 F3 FF 07 00 F8 06 00 
   949)      1676.0  Rx         0100  8  38 FF 5E 00 E7 F2 FF 00 
   950)      1676.3  Rx         0110  8  38 E7 FC A3 00 B4 26 00 
   951)      1676.5  Rx         0120  8  38 A5 FF 12 00 AA 06 00 
   952)      1679.5  Rx         0102  8  39 AC 5B 00 94 14 00 00 
   953)      1679.8  Rx         0112  8  39 9C FF 3F 00 22 27 00 
   954)      1680.0  Rx         0122  8  39 F3 FF 07 00 F8 06 00 
   955)      1681.0  Rx         0100  8  39 6F 5F 00 E3 F4 FF 00 
   956)      1681.2  Rx         0110  8  39 E2 FC A5 00 B1 26 00 
   957)      1681.5  Rx         0120  8  39 A4 FF 13 00 A9 06 00 
   958)      1684.5  Rx         0102  8  3A 62 5C 00 95 1C 00 00 
   959)      1684.7  Rx         0112  8  3A 75 FF 40 00 35 27 00 
   960)      1685.0  Rx         0122  8  3A F3 FF 07 00 F8 06 00 
   961)      1686.0  Rx         0100  8  3A AE 5F 00 01 F6 FF 00 
   962)      1686.2  Rx         0110  8  3A E4 FC A3 00 B4 26 00 
   963)      1686.5  Rx         0120  8  3A A5 FF 12 00 AA 06 00 
   964)      1689.5  Rx         0102  8  3B FD 5C 00 66 23 00 00 
   965)      1689.7  Rx         0112  8  3B 88 FF 2B 00 26 27 00 
   966)      1690.0  Rx         0122  8  3B F3 FF 05 00 F9 06 00 
   967)      1691.0  Rx         0100  8  3B 1C 5F 00 6A F3 FF 00 
   968)      1691.2  Rx         0110  8  3B E4 FC A6 00 B7 26 00 
   969)      1691.5  Rx         0120  8  3B A5 FF 13 00 A9 06 00 
   970)      1694.5  Rx         0102  8  3C 38 5C 00 BC 1A 00 00 
   971)      1694.7  Rx         0112  8  3C 88 FF 17 00 0D 27 00 
   972)      1695.0  Rx         0122  8  3C F5 FF 02 00 FC 06 00 
   973)      1696.0  Rx         0100  8  3C CE 5E 00 08 F2 FF 00 
   974)      1696.3  Rx         0110  8  3C E5 FC A8 00 B7 26 00 
   975)      1696.5  Rx         0120  8  3C A5 FF 13 00 AA 06 00 
   976)      1699.5  Rx         0102  8  3D FF 5B 00 3B 18 00 00 
   977)      1699.7  Rx         0112  8  3D 75 FF 2D 00 49 27 00 
   978)      1700.0  Rx         0122  8  3D F1 FF 05 00 F7 06 00 
   979)      1701.0  Rx         0100  8  3D 1B 5F 00 66 F3 FF 00 
   980)      1701.3  Rx         0110  8  3D E0 FC A6 00 B7 26 00 
   981)      1701.5  Rx         0120  8  3D A4 FF 13 00 A9 06 00 
   982)      1704.5  Rx         0102  8  3E 93 5C 00 BD 1E 00 00 
   983)      1704.8  Rx         0112  8  3E 88 FF 3F 00 22 27 00 
   984)      1705.0  Rx         0122  8  3E F3 FF 07 00 F8 06 00 
   985)      1706.0  Rx         0100  8  3E 98 5F 00 9D F5 FF 00 
   986)      1706.2  Rx         0110  8  3E E2 FC A6 00 B4 26 00 
   987)      1706.5  Rx         0120  8  3E A4 FF 13 00 A9 06 00 
   988)      1709.5  Rx         0102  8  3F 13 5D 00 5E 24 00 00 
   989)      1709.7  Rx         0112  8  3F 9D FF 2C 00 35 27 00 
   990)      1710.0  Rx         0122  8  3F F3 FF 05 00 F9 06 00 
   991)      1711.0  Rx         0100  8  3F 1A 5F 00 61 F3 FF 00 
   992)      1711.3  Rx         0110  8  3F E0 FC A8 00 B6 26 00 
   993)      1711.5  Rx         0120  8  3F A4 FF 13 00 A9 06 00 
   994)      1714.5  Rx         0102  8  40 86 5C 00 2A 1E 00 00 
   995)      1714.7  Rx         0112  8  40 75 FF 2C 00 4D 27 00 
   996)      1715.0  Rx         0122  8  40 EE FF 05 00 F5 06 00 
   997)      1716.0  Rx         0100  8  40 C4 5E 00 DB F1 FF 00 
   998)      1716.2  Rx         0110  8  40 E2 FC A0 00 B2 26 00 
   999)      1716.5  Rx         0120  8  40 A4 FF 12 00 A9 06 00 
  1000)      1719.5  Rx         0102  8  41 7E 5B 00 8F 12 00 00 
  1001)      1719.7  Rx         0112  8  41 75 FF 04 00 34 27 00 
  1002)      1720.0  Rx         0122  8  41 F1 FF 00 00 F8 06 00 
  1003)      1721.0  Rx         0100  8  41 06 5F 00 06 F3 FF 00 
  1004)      1721.3  Rx         0110  8  41 E2 FC 9C 00 B4 26 00 
  1005)      1721.5  Rx         0120  8  41 A4 FF 12 00 A9 06 00 
  1006)      1724.5  Rx         0102  8  42 52 5C 00 E1 1B 00 00 
  1007)      1724.7  Rx         0112  8  42 9C FF 2B 00 FA 26 00 
  1008)      1725.0  Rx         0122  8  42 F5 FF 04 00 FB 06 00 
  1009)      1726.0  Rx         0100  8  42 6E 5F 00 DE F4 FF 00 
  1010)      1726.2  Rx         0110  8  42 E4 FC 9C 00 B4 26 00 
  1011)      1726.5  Rx         0120  8  42 A5 FF 12 00 AA 06 00 
  1012)      1729.5  Rx         0102  8  43 05 5D 00 C0 23 00 00 
  1013)      1729.8  Rx         0112  8  43 9C FF 2C 00 38 27 00 
  1014)      1730.0  Rx         0122  8  43 F3 FF 05 00 F9 06 00 
  1015)      1731.0  Rx         0100  8  43 10 5F 00 34 F3 FF 00 
  1016)      1731.2  Rx         0110  8  43 E5 FC 9C 00 B7 26 00 
  1017)      1731.5  Rx         0120  8  43 A5 FF 12 00 AA 06 00 
  1018)      1734.5  Rx         0102  8  44 41 5C 00 22 1B 00 00 
  1019)      1734.7  Rx         0112  8  44 9C FF 2D 00 35 27 00 
  1020)      1735.0  Rx         0122  8  44 F5 FF 05 00 FB 06 00 
  1021)      1736.0  Rx         0100  8  44 D4 5E 00 23 F2 FF 00 
  1022)      1736.2  Rx         0110  8  44 E9 FC 9C 00 B6 26 00 
  1023)      1736.5  Rx         0120  8  44 A5 FF 12 00 AA 06 00 
  1024)      1739.5  Rx         0102  8  45 DD 5B 00 BC 16 00 00 
  1025)      1739.7  Rx         0112  8  45 9C FF 2D 00 4D 27 00 
  1026)      1740.0  Rx         0122  8  45 F3 FF 05 00 F9 06 00 
  1027)      1741.0  Rx         0100  8  45 27 5F 00 9C F3 FF 00 
  1028)      1741.2  Rx         0110  8  45 E9 FC 99 00 B4 26 00 
  1029)      1741.5  Rx         0120  8  45 A5 FF 11 00 AA 06 00 
  1030)      1744.5  Rx         0102  8  46 49 5C 00 7C 1B 00 00 
  1031)      1744.7  Rx         0112  8  46 88 FF 2D 00 35 27 00 
  1032)      1745.0  Rx         0122  8  46 F5 FF 05 00 FB 06 00 
  1033)      1746.0  Rx         0100  8  46 DA 5F 00 C9 F6 FF 00 
  1034)      1746.2  Rx         0110  8  46 E7 FC 97 00 B1 26 00 
  1035)      1746.5  Rx         0120  8  46 A5 FF 11 00 AA 06 00 
  1036)      1749.5  Rx         0102  8  47 25 5D 00 28 25 00 00 
  1037)      1749.7  Rx         0112  8  47 88 FF 2D 00 39 27 00 
  1038)      1750.0  Rx         0122  8  47 F5 FF 05 00 FB 06 00 
  1039)      1751.0  Rx         0100  8  47 1D 5F 00 6F F3 FF 00 
  1040)      1751.2  Rx         0110  8  47 E4 FC 99 00 B6 26 00 
  1041)      1751.5  Rx         0120  8  47 A5 FF 11 00 AA 06 00 
  1042)      1754.5  Rx         0102  8  48 5A 5C 00 3B 1C 00 00 
  1043)      1754.8  Rx         0112  8  48 AF FF 2D 00 4D 27 00 
  1044)      1755.0  Rx         0122  8  48 F5 FF 05 00 FB 06 00 
  1045)      1756.0  Rx         0100  8  48 DD 5E 00 4C F2 FF 00 
  1046)      1756.3  Rx         0110  8  48 E5 FC 96 00 B6 26 00 
  1047)      1756.5  Rx         0120  8  48 A5 FF 11 00 AA 06 00 
  1048)      1759.5  Rx         0102  8  49 E4 5B 00 0B 17 00 00 
  1049)      1759.7  Rx         0112  8  49 75 FF 40 00 49 27 00 
  1050)      1760.0  Rx         0122  8  49 F3 FF 07 00 F8 06 00 
  1051)      1761.0  Rx         0100  8  49 44 5F 00 20 F4 FF 00 
  1052)      1761.2  Rx         0110  8  49 E5 FC 9B 00 B9 26 00 
  1053)      1761.5  Rx         0120  8  49 A5 FF 11 00 AA 06 00 
  1054)      1764.5  Rx         0102  8  4A 56 5C 00 0E 1C 00 00 
  1055)      1764.7  Rx         0112  8  4A 75 FF 2C 00 35 27 00 
  1056)      1765.0  Rx         0122  8  4A F3 FF 05 00 F9 06 00 
  1057)      1766.0  Rx         0100  8  4A A5 5F 00 D8 F5 FF 00 
  1058)      1766.2  Rx         0110  8  4A E9 FC 97 00 BE 26 00 
  1059)      1766.4  Rx         0120  8  4A A5 FF 11 00 AA 06 00 
  1060)      1769.5  Rx         0102  8  4B B4 5C 00 30 20 00 00 
  1061)      1769.7  Rx         0112  8  4B 88 FF 2B 00 26 27 00 
  1062)      1770.0  Rx         0122  8  4B F3 FF 05 00 F9 06 00 
  1063)      1771.0  Rx         0100  8  4B AC 5F 00 F8 F5 FF 00 
  1064)      1771.2  Rx         0110  8  4B E7 FC 9E 00 B9 26 00 
  1065)      1771.5  Rx         0120  8  4B A5 FF 12 00 AA 06 00 
  1066)      1774.5  Rx         0102  8  4C 0A 5C 00 B7 18 00 00 
  1067)      1774.8  Rx         0112  8  4C 88 FF 2D 00 48 27 00 
  1068)      1775.0  Rx         0122  8  4C F3 FF 05 00 F9 06 00 
  1069)      1776.0  Rx         0100  8  4C E1 5E 00 5E F2 FF 00 
  1070)      1776.3  Rx         0110  8  4C E7 FC A3 00 B7 26 00 
  1071)      1776.5  Rx         0120  8  4C A5 FF 12 00 AA 06 00 
  1072)      1779.5  Rx         0102  8  4D 82 5B 00 BC 12 00 00 
  1073)      1779.8  Rx         0112  8  4D 75 FF 3F 00 22 27 00 
  1074)      1780.0  Rx         0122  8  4D F0 FF 07 00 F6 06 00 
  1075)      1781.0  Rx         0100  8  4D 61 5F 00 A3 F4 FF 00 
  1076)      1781.3  Rx         0110  8  4D E4 FC A8 00 B4 26 00 
  1077)      1781.5  Rx         0120  8  4D A5 FF 13 00 A9 06 00 
  1078)      1784.5  Rx         0102  8  4E 88 5C 00 41 1E 00 00 
  1079)      1784.8  Rx         0112  8  4E 75 FF 2D 00 48 27 00 
  1080)      1785.0  Rx         0122  8  4E F3 FF 05 00 F9 06 00 
  1081)      1786.0  Rx         0100  8  4E CC 5F 00 89 F6 FF 00 
  1082)      1786.2  Rx         0110  8  4E E5 FC A6 00 B1 26 00 
  1083)      1786.5  Rx         0120  8  4E A5 FF 13 00 AA 06 00 
  1084)      1789.5  Rx         0102  8  4F 11 5D 00 47 24 00 00 
  1085)      1789.7  Rx         0112  8  4F 88 FF 2D 00 48 27 00 
  1086)      1790.0  Rx         0122  8  4F F3 FF 05 00 F9 06 00 
  1087)      1791.0  Rx         0100  8  4F 73 5F 00 F5 F4 FF 00 
  1088)      1791.2  Rx         0110  8  4F E2 FC A8 00 AD 26 00 
  1089)      1791.5  Rx         0120  8  4F A4 FF 13 00 A9 06 00 
  1090)      1794.5  Rx         0102  8  50 7F 5C 00 DC 1D 00 00 
  1091)      1794.7  Rx         0112  8  50 9C FF 2D 00 4D 27 00 
  1092)      1795.0  Rx         0122  8  50 F3 FF 05 00 F9 06 00 
  1093)      1796.0  Rx         0100  8  50 60 5E 00 15 F0 FF 00 
  1094)      1796.3  Rx         0110  8  50 E4 FC A8 00 B1 26 00 
  1095)      1796.5  Rx         0120  8  50 A5 FF 13 00 A9 06 00 
  1096)      1799.5  Rx         0102  8  51 EB 5B 00 5A 17 00 00 
  1097)      1799.7  Rx         0112  8  51 9C FF 54 00 3A 27 00 
  1098)      1800.0  Rx         0122  8  51 F7 FF 09 00 FA 06 00 
  1099)      1801.0  Rx         0100  8  51 E1 5E 00 5E F2 FF 00 
  1100)      1801.3  Rx         0110  8  51 E0 FC A8 00 B6 26 00 
  1101)      1801.5  Rx         0120  8  51 A4 FF 13 00 A9 06 00 
  1102)      1804.5  Rx         0102  8  52 9D 5C 00 2D 1F 00 00 
  1103)      1804.8  Rx         0112  8  52 88 FF 18 00 20 27 00 
  1104)      1805.0  Rx         0122  8  52 F5 FF 02 00 FC 06 00 
  1105)      1806.0  Rx         0100  8  52 53 5F 00 64 F4 FF 00 
  1106)      1806.3  Rx         0110  8  52 E5 FC AA 00 B6 26 00 
  1107)      1806.5  Rx         0120  8  52 A5 FF 13 00 A9 06 00 
  1108)      1809.5  Rx         0102  8  53 0F 5D 00 31 24 00 00 
  1109)      1809.8  Rx         0112  8  53 9C FF 19 00 4D 27 00 
  1110)      1810.0  Rx         0122  8  53 F1 FF 02 00 F7 06 00 
  1111)      1811.0  Rx         0100  8  53 74 5F 00 FA F4 FF 00 
  1112)      1811.2  Rx         0110  8  53 E2 FC AA 00 B2 26 00 
  1113)      1811.5  Rx         0120  8  53 A4 FF 13 00 A9 06 00 
  1114)      1814.5  Rx         0102  8  54 4A 5C 00 87 1B 00 00 
  1115)      1814.7  Rx         0112  8  54 B0 FF 2D 00 35 27 00 
  1116)      1815.0  Rx         0122  8  54 F5 FF 05 00 FB 06 00 
  1117)      1816.0  Rx         0100  8  54 0C 5F 00 22 F3 FF 00 
  1118)      1816.3  Rx         0110  8  54 E0 FC A3 00 B2 26 00 
  1119)      1816.5  Rx         0120  8  54 A4 FF 12 00 A9 06 00 
  1120)      1819.5  Rx         0102  8  55 86 5B 00 E9 12 00 00 
  1121)      1819.7  Rx         0112  8  55 9C FF 19 00 4C 27 00 
  1122)      1820.0  Rx         0122  8  55 F5 FF 02 00 FC 06 00 
  1123)      1821.0  Rx         0100  8  55 2B 5F 00 AE F3 FF 00 
  1124)      1821.3  Rx         0110  8  55 E0 FC A1 00 B6 26 00 
  1125)      1821.5  Rx         0120  8  55 A4 FF 12 00 A9 06 00 
  1126)      1824.5  Rx         0102  8  56 3D 5C 00 F5 1A 00 00 
  1127)      1824.8  Rx         0112  8  56 B0 FF 2D 00 48 27 00 
  1128)      1825.0  Rx         0122  8  56 F3 FF 05 00 F9 06 00 
  1129)      1826.0  Rx         0100  8  56 10 60 00 BE F7 FF 00 
  1130)      1826.3  Rx         0110  8  56 E4 FC A1 00 B7 26 00 
  1131)      1826.5  Rx         0120  8  56 A5 FF 12 00 AA 06 00 
  1132)      1829.5  Rx         0102  8  57 F2 5C 00 EA 22 00 00 
  1133)      1829.8  Rx         0112  8  57 89 FF 2D 00 39 27 00 
  1134)      1830.0  Rx         0122  8  57 F5 FF 05 00 FB 06 00 
  1135)      1831.0  Rx         0100  8  57 70 5F 00 E7 F4 FF 00 
  1136)      1831.3  Rx         0110  8  57 E5 FC A0 00 BB 26 00 
  1137)      1831.5  Rx         0120  8  57 A5 FF 12 00 AA 06 00 
  1138)      1834.5  Rx         0102  8  58 70 5C 00 33 1D 00 00 
  1139)      1834.8  Rx         0112  8  58 9C FF 41 00 49 27 00 
  1140)      1835.0  Rx         0122  8  58 F5 FF 07 00 FA 06 00 
  1141)      1836.0  Rx         0100  8  58 DE 5E 00 51 F2 FF 00 
  1142)      1836.3  Rx         0110  8  58 EA FC 97 00 B9 26 00 
  1143)      1836.5  Rx         0120  8  58 A5 FF 11 00 AB 06 00 
  1144)      1839.5  Rx         0102  8  59 CB 5B 00 F1 15 00 00 
  1145)      1839.7  Rx         0112  8  59 88 FF 2C 00 25 27 00 
  1146)      1840.0  Rx         0122  8  59 F5 FF 05 00 FB 06 00 
  1147)      1841.0  Rx         0100  8  59 47 5F 00 2D F4 FF 00 
  1148)      1841.2  Rx         0110  8  59 EA FC 96 00 B9 26 00 
  1149)      1841.5  Rx         0120  8  59 A5 FF 11 00 AB 06 00 
  1150)      1844.5  Rx         0102  8  5A 5F 5C 00 73 1C 00 00 
  1151)      1844.7  Rx         0112  8  5A 9C FF 2B 00 26 27 00 
  1152)      1845.0  Rx         0122  8  5A F3 FF 05 00 F9 06 00 
  1153)      1846.0  Rx         0100  8  5A C5 5F 00 69 F6 FF 00 
  1154)      1846.3  Rx         0110  8  5A EE FC 92 00 B2 26 00 
  1155)      1846.5  Rx         0120  8  5A A6 FF 10 00 AB 06 00 
  1156)      1849.5  Rx         0102  8  5B F1 5C 00 DF 22 00 00 
  1157)      1849.7  Rx         0112  8  5B 9C FF 2B 00 0E 27 00 
  1158)      1850.0  Rx         0122  8  5B F5 FF 05 00 FB 06 00 
  1159)      1851.0  Rx         0100  8  5B 4B 5F 00 40 F4 FF 00 
  1160)      1851.3  Rx         0110  8  5B EC FC 96 00 B2 26 00 
  1161)      1851.5  Rx         0120  8  5B A5 FF 11 00 AB 06 00 
  1162)      1854.6  Rx         0102  8  5C 26 5C 00 F2 19 00 00 
  1163)      1854.8  Rx         0112  8  5C 9B FF 2B 00 12 27 00 
  1164)      1855.0  Rx         0122  8  5C F3 FF 04 00 F9 06 00 
  1165)      1856.0  Rx         0100  8  5C D2 5E 00 1A F2 FF 00 
  1166)      1856.3  Rx         0110  8  5C EC FC 8F 00 B2 26 00 
  1167)      1856.5  Rx         0120  8  5C A6 FF 10 00 AB 06 00 
  1168)      1859.5  Rx         0102  8  5D 19 5C 00 5F 19 00 00 
  1169)      1859.8  Rx         0112  8  5D 9C FF 05 00 4B 27 00 
  1170)      1860.0  Rx         0122  8  5D F3 FF 00 00 FA 06 00 
  1171)      1861.0  Rx         0100  8  5D 40 5F 00 0E F4 FF 00 
  1172)      1861.3  Rx         0110  8  5D E5 FC 94 00 B7 26 00 
  1173)      1861.5  Rx         0120  8  5D A5 FF 11 00 AA 06 00 
  1174)      1864.5  Rx         0102  8  5E 98 5C 00 F5 1E 00 00 
  1175)      1864.8  Rx         0112  8  5E 88 FF 18 00 39 27 00 
  1176)      1865.0  Rx         0122  8  5E F1 FF 02 00 F7 06 00 
  1177)      1866.0  Rx         0100  8  5E 82 5F 00 39 F5 FF 00 
  1178)      1866.2  Rx         0110  8  5E E4 FC 96 00 BB 26 00 
  1179)      1866.5  Rx         0120  8  5E A5 FF 11 00 AA 06 00 
  1180)      1869.5  Rx         0102  8  5F 2E 5D 00 8E 25 00 00 
  1181)      1869.7  Rx         0112  8  5F 88 FF 2D 00 35 27 00 
  1182)      1870.0  Rx         0122  8  5F F5 FF 05 00 FB 06 00 
  1183)      1871.0  Rx         0100  8  5F 26 5F 00 98 F3 FF 00 
  1184)      1871.3  Rx         0110  8  5F E2 FC 94 00 BB 26 00 
  1185)      1871.5  Rx         0120  8  5F A4 FF 11 00 AA 06 00 
  1186)      1874.5  Rx         0102  8  60 8B 5C 00 63 1E 00 00 
  1187)      1874.8  Rx         0112  8  60 9C FF 40 00 3A 27 00 
  1188)      1875.0  Rx         0122  8  60 F5 FF 07 00 FA 06 00 
  1189)      1876.0  Rx         0100  8  60 CE 5E 00 08 F2 FF 00 
  1190)      1876.3  Rx         0110  8  60 E2 FC 99 00 BB 26 00 
  1191)      1876.5  Rx         0120  8  60 A4 FF 11 00 AA 06 00 
  1192)      1879.6  Rx         0102  8  61 12 5C 00 11 19 00 00 
  1193)      1879.8  Rx         0112  8  61 9C FF 40 00 36 27 00 
  1194)      1880.0  Rx         0122  8  61 F3 FF 07 00 F8 06 00 
  1195)      1881.0  Rx         0100  8  61 2C 5F 00 B3 F3 FF 00 
  1196)      1881.3  Rx         0110  8  61 E0 FC 9C 00 B6 26 00 
  1197)      1881.5  Rx         0120  8  61 A4 FF 12 00 A9 06 00 
  1198)      1884.5  Rx         0102  8  62 62 5C 00 95 1C 00 00 
  1199)      1884.8  Rx         0112  8  62 9C FF 3F 00 11 27 00 
  1200)      1885.0  Rx         0122  8  62 F7 FF 07 00 FC 06 00 
  1201)      1886.0  Rx         0100  8  62 B4 5F 00 1C F6 FF 00 
  1202)      1886.3  Rx         0110  8  62 E4 FC A1 00 B1 26 00 
  1203)      1886.5  Rx         0120  8  62 A4 FF 12 00 A9 06 00 
  1204)      1889.5  Rx         0102  8  63 F0 5C 00 D4 22 00 00 
  1205)      1889.8  Rx         0112  8  63 9C FF 2D 00 39 27 00 
  1206)      1890.0  Rx         0122  8  63 F5 FF 05 00 FB 06 00 
  1207)      1891.0  Rx         0100  8  63 31 5F 00 C9 F3 FF 00 
  1208)      1891.3  Rx         0110  8  63 E2 FC A5 00 AF 26 00 
  1209)      1891.5  Rx         0120  8  63 A4 FF 13 00 A9 06 00 
  1210)      1894.5  Rx         0102  8  64 36 5C 00 A6 1A 00 00 
  1211)      1894.8  Rx         0112  8  64 9C FF 40 00 49 27 00 
  1212)      1895.0  Rx         0122  8  64 F3 FF 07 00 F8 06 00 
  1213)      1896.0  Rx         0100  8  64 F7 5E 00 C2 F2 FF 00 
  1214)      1896.2  Rx         0110  8  64 E5 FC A5 00 B2 26 00 
  1215)      1896.5  Rx         0120  8  64 A5 FF 13 00 AA 06 00 
  1216)      1899.5  Rx         0102  8  65 71 5B 00 FC 11 00 00 
  1217)      1899.8  Rx         0112  8  65 9C FF 2D 00 4D 27 00 
  1218)      1900.0  Rx         0122  8  65 F1 FF 05 00 F7 06 00 
  1219)      1901.1  Rx         0100  8  65 3A 5F 00 F2 F3 FF 00 
  1220)      1901.3  Rx         0110  8  65 E2 FC A1 00 B1 26 00 
  1221)      1901.5  Rx         0120  8  65 A4 FF 12 00 A9 06 00 
  1222)      1904.6  Rx         0102  8  66 8E 5C 00 84 1E 00 00 
  1223)      1904.8  Rx         0112  8  66 88 FF 2B 00 26 27 00 
  1224)      1905.0  Rx         0122  8  66 F0 FF 05 00 F7 06 00 
  1225)      1906.1  Rx         0100  8  66 C6 5F 00 6E F6 FF 00 
  1226)      1906.3  Rx         0110  8  66 E4 FC A5 00 B1 26 00 
  1227)      1906.5  Rx         0120  8  66 A4 FF 12 00 A9 06 00 
  1228)      1909.6  Rx         0102  8  67 01 5D 00 93 23 00 00 
  1229)      1909.8  Rx         0112  8  67 75 FF 2C 00 3A 27 00 
  1230)      1910.0  Rx         0122  8  67 F0 FF 05 00 F7 06 00 
  1231)      1910.2  Rx         0182  8  26 83 00 00 00 00 00 00 
  1232)      1911.0  Rx         0100  8  67 5D 5F 00 91 F4 FF 00 
  1233)      1911.3  Rx         0110  8  67 E2 FC AA 00 AF 26 00 
  1234)      1911.5  Rx         0120  8  67 A4 FF 13 00 A9 06 00 
  1235)      1914.5  Rx         0102  8  68 3D 5C 00 F5 1A 00 00 
  1236)      1914.8  Rx         0112  8  68 88 FF 40 00 36 27 00 
  1237)      1915.0  Rx         0122  8  68 F1 FF 07 00 F6 06 00 
  1238)      1916.0  Rx         0100  8  68 F2 5E 00 AC F2 FF 00 
  1239)      1916.2  Rx         0110  8  68 E4 FC A5 00 B1 26 00 
  1240)      1916.5  Rx         0120  8  68 A4 FF 13 00 A9 06 00 
  1241)      1919.5  Rx         0102  8  69 CD 5B 00 08 16 00 00 
  1242)      1919.7  Rx         0112  8  69 88 FF 54 00 36 27 00 
  1243)      1920.0  Rx         0122  8  69 F5 FF 09 00 F9 06 00 
  1244)      1921.0  Rx         0100  8  69 92 5F 00 82 F5 FF 00 
  1245)      1921.3  Rx         0110  8  69 E0 FC A8 00 B7 26 00 
  1246)      1921.5  Rx         0120  8  69 A4 FF 13 00 A9 06 00 
  1247)      1924.5  Rx         0102  8  6A 69 5C 00 E4 1C 00 00 
  1248)      1924.8  Rx         0112  8  6A 74 FF 2B 00 26 27 00 
  1249)      1925.0  Rx         0122  8  6A F3 FF 05 00 F9 06 00 
  1250)      1926.0  Rx         0100  8  6A 74 5F 00 FA F4 FF 00 
  1251)      1926.3  Rx         0110  8  6A E0 FC A6 00 B7 26 00 
  1252)      1926.5  Rx         0120  8  6A A4 FF 13 00 A9 06 00 
  1253)      1929.6  Rx         0102  8  6B F5 5C 00 0C 23 00 00 
  1254)      1929.8  Rx         0112  8  6B 9C FF 2D 00 35 27 00 
  1255)      1930.0  Rx         0122  8  6B F5 FF 05 00 FB 06 00 
  1256)      1931.1  Rx         0100  8  6B 0C 5F 00 22 F3 FF 00 
  1257)      1931.3  Rx         0110  8  6B DF FC A8 00 B9 26 00 
  1258)      1931.5  Rx         0120  8  6B A4 FF 13 00 A9 06 00 
  1259)      1934.6  Rx         0102  8  6C 69 5C 00 E4 1C 00 00 
  1260)      1934.8  Rx         0112  8  6C 88 FF 2C 00 35 27 00 
  1261)      1935.0  Rx         0122  8  6C F3 FF 05 00 F9 06 00 
  1262)      1936.0  Rx         0100  8  6C D2 5E 00 1A F2 FF 00 
  1263)      1936.3  Rx         0110  8  6C E2 FC A5 00 B2 26 00 
  1264)      1936.5  Rx         0120  8  6C A4 FF 13 00 A9 06 00 
  1265)      1939.5  Rx         0102  8  6D DA 5B 00 9A 16 00 00 
  1266)      1939.8  Rx         0112  8  6D 75 FF 18 00 38 27 00 
  1267)      1940.0  Rx         0122  8  6D F3 FF 02 00 FA 06 00 
  1268)      1941.0  Rx         0100  8  6D 0B 5F 00 1D F3 FF 00 
  1269)      1941.3  Rx         0110  8  6D E4 FC A3 00 B9 26 00 
  1270)      1941.5  Rx         0120  8  6D A5 FF 12 00 AA 06 00 
  1271)      1944.5  Rx         0102  8  6E 5D 5C 00 5D 1C 00 00 
  1272)      1944.8  Rx         0112  8  6E 88 FF 2C 00 22 27 00 
  1273)      1945.0  Rx         0122  8  6E F5 FF 05 00 FB 06 00 
  1274)      1946.0  Rx         0100  8  6E 89 5F 00 59 F5 FF 00 
  1275)      1946.3  Rx         0110  8  6E E7 FC A0 00 B7 26 00 
  1276)      1946.5  Rx         0120  8  6E A5 FF 12 00 AA 06 00 
  1277)      1949.5  Rx         0102  8  6F F7 5C 00 22 23 00 00 
  1278)      1949.8  Rx         0112  8  6F 9C FF 2D 00 4B 27 00 
  1279)      1950.0  Rx         0122  8  6F F5 FF 05 00 FB 06 00 
  1280)      1951.1  Rx         0100  8  6F 44 5F 00 20 F4 FF 00 
  1281)      1951.3  Rx         0110  8  6F E7 FC 9C 00 B1 26 00 
  1282)      1951.5  Rx         0120  8  6F A5 FF 12 00 AA 06 00 
  1283)      1954.5  Rx         0102  8  70 48 5C 00 70 1B 00 00 
  1284)      1954.8  Rx         0112  8  70 88 FF 40 00 3A 27 00 
  1285)      1955.0  Rx         0122  8  70 F0 FF 07 00 F6 06 00 
  1286)      1956.0  Rx         0100  8  70 ED 5E 00 95 F2 FF 00 
  1287)      1956.3  Rx         0110  8  70 EE FC 97 00 B4 26 00 
  1288)      1956.5  Rx         0120  8  70 A6 FF 11 00 AB 06 00 
  1289)      1959.5  Rx         0102  8  71 BF 5B 00 6A 15 00 00 
  1290)      1959.8  Rx         0112  8  71 75 FF 2D 00 4D 27 00 
  1291)      1960.0  Rx         0122  8  71 F3 FF 05 00 F9 06 00 
  1292)      1961.0  Rx         0100  8  71 33 5F 00 D3 F3 FF 00 
  1293)      1961.3  Rx         0110  8  71 EE FC 96 00 B4 26 00 
  1294)      1961.5  Rx         0120  8  71 A6 FF 11 00 AB 06 00 
  1295)      1964.5  Rx         0102  8  72 4E 5C 00 B4 1B 00 00 
  1296)      1964.8  Rx         0112  8  72 87 FF 18 00 25 27 00 
  1297)      1965.0  Rx         0122  8  72 F5 FF 02 00 FC 06 00 
  1298)      1966.0  Rx         0100  8  72 81 5F 00 35 F5 FF 00 
  1299)      1966.3  Rx         0110  8  72 EE FC 92 00 B4 26 00 
  1300)      1966.5  Rx         0120  8  72 A6 FF 10 00 AB 06 00 
  1301)      1969.5  Rx         0102  8  73 13 5D 00 5E 24 00 00 
  1302)      1969.8  Rx         0112  8  73 88 FF 19 00 35 27 00 
  1303)      1970.0  Rx         0122  8  73 F3 FF 02 00 F9 06 00 
  1304)      1971.0  Rx         0100  8  73 3F 5F 00 09 F4 FF 00 
  1305)      1971.3  Rx         0110  8  73 EE FC 94 00 B4 26 00 
  1306)      1971.5  Rx         0120  8  73 A6 FF 11 00 AB 06 00 
  1307)      1974.5  Rx         0102  8  74 41 5C 00 22 1B 00 00 
  1308)      1974.8  Rx         0112  8  74 9C FF 40 00 35 27 00 
  1309)      1975.0  Rx         0122  8  74 F5 FF 07 00 FA 06 00 
  1310)      1976.0  Rx         0100  8  74 AC 5E 00 6E F1 FF 00 
  1311)      1976.3  Rx         0110  8  74 EE FC 91 00 B2 26 00 
  1312)      1976.5  Rx         0120  8  74 A6 FF 10 00 AB 06 00 
  1313)      1979.5  Rx         0102  8  75 EC 5B 00 65 17 00 00 
  1314)      1979.8  Rx         0112  8  75 74 FF 40 00 3A 27 00 
  1315)      1980.0  Rx         0122  8  75 F5 FF 07 00 FA 06 00 
  1316)      1981.0  Rx         0100  8  75 EC 5E 00 90 F2 FF 00 
  1317)      1981.3  Rx         0110  8  75 E7 FC 96 00 B6 26 00 
  1318)      1981.5  Rx         0120  8  75 A5 FF 11 00 AA 06 00 
  1319)      1984.6  Rx         0102  8  76 90 5C 00 9B 1E 00 00 
  1320)      1984.8  Rx         0112  8  76 88 FF 2D 00 39 27 00 
  1321)      1985.0  Rx         0122  8  76 F5 FF 05 00 FB 06 00 
  1322)      1986.1  Rx         0100  8  76 8C 5F 00 67 F5 FF 00 
  1323)      1986.3  Rx         0110  8  76 E5 FC 97 00 BB 26 00 
  1324)      1986.5  Rx         0120  8  76 A5 FF 11 00 AA 06 00 
  1325)      1989.5  Rx         0102  8  77 06 5D 00 CB 23 00 00 
  1326)      1989.8  Rx         0112  8  77 B0 FF 2D 00 39 27 00 
  1327)      1990.0  Rx         0122  8  77 F5 FF 05 00 FB 06 00 
  1328)      1991.0  Rx         0100  8  77 21 5F 00 81 F3 FF 00 
  1329)      1991.3  Rx         0110  8  77 E2 FC A1 00 BE 26 00 
  1330)      1991.5  Rx         0120  8  77 A4 FF 12 00 A9 06 00 
  1331)      1994.5  Rx         0102  8  78 48 5C 00 70 1B 00 00 
  1332)      1994.8  Rx         0112  8  78 9C FF 40 00 35 27 00 
  1333)      1995.0  Rx         0122  8  78 F5 FF 07 00 FA 06 00 
  1334)      1996.0  Rx         0100  8  78 2B 5F 00 AE F3 FF 00 
  1335)      1996.3  Rx         0110  8  78 E5 FC 9B 00 BC 26 00 
  1336)      1996.5  Rx         0120  8  78 A5 FF 11 00 AA 06 00 
  1337)      1999.5  Rx         0102  8  79 80 5B 00 A5 12 00 00 
  1338)      1999.8  Rx         0112  8  79 9C FF 40 00 35 27 00 
  1339)      2000.0  Rx         0122  8  79 F7 FF 07 00 FC 06 00 
  1340)      2001.0  Rx         0100  8  79 31 5F 00 C9 F3 FF 00 
  1341)      2001.3  Rx         0110  8  79 E5 FC 9C 00 BC 26 00 
  1342)      2001.5  Rx         0120  8  79 A5 FF 12 00 AA 06 00 
  1343)      2004.5  Rx         0102  8  7A 3B 5C 00 DE 1A 00 00 
  1344)      2004.8  Rx         0112  8  7A 9C FF 40 00 36 27 00 
  1345)      2005.0  Rx         0122  8  7A F3 FF 07 00 F8 06 00 
  1346)      2006.0  Rx         0100  8  7A B0 5F 00 0A F6 FF 00 
  1347)      2006.3  Rx         0110  8  7A E7 FC 9C 00 B4 26 00 
  1348)      2006.5  Rx         0120  8  7A A5 FF 12 00 AA 06 00 
  1349)      2009.6  Rx         0102  8  7B F7 5C 00 22 23 00 00 
  1350)      2009.8  Rx         0112  8  7B 9C FF 2D 00 48 27 00 
  1351)      2010.0  Rx         0122  8  7B F3 FF 05 00 F9 06 00 
  1352)      2011.1  Rx         0100  8  7B ED 5E 00 95 F2 FF 00 
  1353)      2011.3  Rx         0110  8  7B E5 FC AA 00 B1 26 00 
  1354)      2011.5  Rx         0120  8  7B A5 FF 13 00 AA 06 00 
  1355)      2014.6  Rx         0102  8  7C 4E 5C 00 B4 1B 00 00 
  1356)      2014.8  Rx         0112  8  7C 88 FF 40 00 35 27 00 
  1357)      2015.0  Rx         0122  8  7C F5 FF 07 00 FA 06 00 
  1358)      2016.0  Rx         0100  8  7C 85 5E 00 BD F0 FF 00 
  1359)      2016.3  Rx         0110  8  7C E5 FC AB 00 AC 26 00 
  1360)      2016.5  Rx         0120  8  7C A5 FF 13 00 A9 06 00 
  1361)      2019.5  Rx         0102  8  7D AA 5B 00 7E 14 00 00 
  1362)      2019.8  Rx         0112  8  7D 88 FF 54 00 49 27 00 
  1363)      2020.0  Rx         0122  8  7D F3 FF 09 00 F7 06 00 
  1364)      2021.0  Rx         0100  8  7D F8 5E 00 C7 F2 FF 00 
  1365)      2021.2  Rx         0110  8  7D E2 FC AB 00 B1 26 00 
  1366)      2021.5  Rx         0120  8  7D A4 FF 13 00 A9 06 00 
  1367)      2024.5  Rx         0102  8  7E 9F 5C 00 44 1F 00 00 
  1368)      2024.8  Rx         0112  8  7E 75 FF 18 00 21 27 00 
  1369)      2025.0  Rx         0122  8  7E F3 FF 02 00 F9 06 00 
  1370)      2026.0  Rx         0100  8  7E AD 5F 00 FC F5 FF 00 
  1371)      2026.3  Rx         0110  8  7E E2 FC AA 00 AF 26 00 
  1372)      2026.5  Rx         0120  8  7E A4 FF 13 00 A9 06 00 
  1373)      2029.5  Rx         0102  8  7F 13 5D 00 5E 24 00 00 
  1374)      2029.8  Rx         0112  8  7F 75 FF 2C 00 35 27 00 
  1375)      2030.0  Rx         0122  8  7F F3 FF 05 00 F9 06 00 
  1376)      2031.0  Rx         0100  8  7F 62 5F 00 A8 F4 FF 00 
  1377)      2031.3  Rx         0110  8  7F E0 FC AA 00 B2 26 00 
  1378)      2031.5  Rx         0120  8  7F A4 FF 13 00 A9 06 00 
  1379)      2264.6  Rx         0102  8  AE C5 5A 00 6C 0A 00 00 
  1380)      2264.8  Rx         0112  8  AE 89 FF 2C 00 35 27 00 
  1381)      2265.0  Rx         0122  8  AE F3 FF 05 00 F9 06 00 
  1382)      2266.1  Rx         0100  8  AE 8E 5F 00 70 F5 FF 00 
  1383)      2266.3  Rx         0110  8  AE E4 FC A5 00 B4 26 00 
  1384)      2266.5  Rx         0120  8  AE A5 FF 13 00 A9 06 00 
  1385)      2269.6  Rx         0102  8  AF 8D 5C 00 79 1E 00 00 
  1386)      2269.8  Rx         0112  8  AF 9C FF 19 00 35 27 00 
  1387)      2270.0  Rx         0122  8  AF F3 FF 02 00 F9 06 00 
  1388)      2271.1  Rx         0100  8  AF D1 5E 00 16 F2 FF 00 
  1389)      2271.3  Rx         0110  8  AF DF FC AF 00 BC 26 00 
  1390)      2271.5  Rx         0120  8  AF A4 FF 14 00 A9 06 00 
  1391)      2274.6  Rx         0102  8  B0 AE 5D 00 2F 2B 00 00 
  1392)      2274.8  Rx         0112  8  B0 75 FF 2C 00 25 27 00 
  1393)      2275.0  Rx         0122  8  B0 F5 FF 05 00 FB 06 00 
  1394)      2276.1  Rx         0100  8  B0 B8 5F 00 2E F6 FF 00 
  1395)      2276.3  Rx         0110  8  B0 E9 FC A1 00 C0 26 00 
  1396)      2276.5  Rx         0120  8  B0 A5 FF 12 00 AA 06 00 
  1397)      2279.5  Rx         0102  8  B1 07 5D 00 D7 23 00 00 
  1398)      2279.8  Rx         0112  8  B1 75 FF 2C 00 22 27 00 
  1399)      2280.1  Rx         0122  8  B1 F5 FF 05 00 FB 06 00 
  1400)      2281.1  Rx         0100  8  B1 F6 5F 00 48 F7 FF 00 
  1401)      2281.3  Rx         0110  8  B1 E4 FC A1 00 BE 26 00 
  1402)      2281.6  Rx         0120  8  B1 A5 FF 12 00 AA 06 00 
  1403)      2284.6  Rx         0102  8  B2 FE 5C 00 71 23 00 00 
  1404)      2284.8  Rx         0112  8  B2 9C FF 3F 00 26 27 00 
  1405)      2285.1  Rx         0122  8  B2 F5 FF 07 00 FA 06 00 
  1406)      2286.1  Rx         0100  8  B2 F0 5F 00 2C F7 FF 00 
  1407)      2286.3  Rx         0110  8  B2 E9 FC 96 00 B9 26 00 
  1408)      2286.5  Rx         0120  8  B2 A5 FF 11 00 AB 06 00 
  1409)      2289.6  Rx         0102  8  B3 97 5C 00 EA 1E 00 00 
  1410)      2289.8  Rx         0112  8  B3 AF FF 2C 00 21 27 00 
  1411)      2290.0  Rx         0122  8  B3 F7 FF 05 00 FD 06 00 
  1412)      2291.1  Rx         0100  8  B3 77 5F 00 07 F5 FF 00 
  1413)      2291.3  Rx         0110  8  B3 EA FC 9B 00 B4 26 00 
  1414)      2291.5  Rx         0120  8  B3 A5 FF 11 00 AB 06 00 
  1415)      2294.6  Rx         0102  8  B4 44 5B 00 02 10 00 00 
  1416)      2294.8  Rx         0112  8  B4 88 FF 3F 00 12 27 00 
  1417)      2295.0  Rx         0122  8  B4 F7 FF 07 00 FC 06 00 
  1418)      2296.1  Rx         0100  8  B4 F6 5D 00 34 EE FF 00 
  1419)      2296.3  Rx         0110  8  B4 EF FC A0 00 AC 26 00 
  1420)      2296.5  Rx         0120  8  B4 A6 FF 12 00 AB 06 00 
  1421)      2299.6  Rx         0102  8  B5 0E 5B 00 A2 0D 00 00 
  1422)      2299.8  Rx         0112  8  B5 9C FF 40 00 4D 27 00 
  1423)      2300.0  Rx         0122  8  B5 F1 FF 07 00 F6 06 00 
  1424)      2301.1  Rx         0100  8  B5 C1 5E 00 CD F1 FF 00 
  1425)      2301.3  Rx         0110  8  B5 EE FC 9C 00 AC 26 00 
  1426)      2301.5  Rx         0120  8  B5 A6 FF 12 00 AB 06 00 
  1427)      2304.6  Rx         0102  8  B6 95 5C 00 D3 1E 00 00 
  1428)      2304.8  Rx         0112  8  B6 75 FF 18 00 21 27 00 
  1429)      2305.0  Rx         0122  8  B6 F3 FF 02 00 F9 06 00 
  1430)      2306.1  Rx         0100  8  B6 AD 5F 00 FC F5 FF 00 
  1431)      2306.3  Rx         0110  8  B6 EE FC A3 00 B1 26 00 
  1432)      2306.6  Rx         0120  8  B6 A6 FF 12 00 AB 06 00 
  1433)      2309.6  Rx         0102  8  B7 A1 5D 00 9C 2A 00 00 
  1434)      2309.8  Rx         0112  8  B7 9C FF 2B 00 26 27 00 
  1435)      2310.1  Rx         0122  8  B7 F3 FF 05 00 F9 06 00 
  1436)      2311.1  Rx         0100  8  B7 F4 5E 00 B5 F2 FF 00 
  1437)      2311.3  Rx         0110  8  B7 EC FC 9C 00 B4 26 00 
  1438)      2311.5  Rx         0120  8  B7 A6 FF 12 00 AB 06 00 
  1439)      2314.6  Rx         0102  8  B8 19 5D 00 A1 24 00 00 
  1440)      2314.8  Rx         0112  8  B8 88 FF 19 00 4C 27 00 
  1441)      2315.0  Rx         0122  8  B8 F3 FF 02 00 FA 06 00 
  1442)      2316.1  Rx         0100  8  B8 9B 5E 00 21 F1 FF 00 
  1443)      2316.3  Rx         0110  8  B8 EC FC 9C 00 B7 26 00 
  1444)      2316.5  Rx         0120  8  B8 A6 FF 12 00 AB 06 00 
  1445)      2319.6  Rx         0102  8  B9 22 5C 00 C5 19 00 00 
  1446)      2319.8  Rx         0112  8  B9 88 FF 2C 00 39 27 00 
  1447)      2320.0  Rx         0122  8  B9 F3 FF 05 00 F9 06 00 
  1448)      2321.1  Rx         0100  8  B9 26 5F 00 98 F3 FF 00 
  1449)      2321.3  Rx         0110  8  B9 E9 FC 9E 00 BB 26 00 
  1450)      2321.5  Rx         0120  8  B9 A5 FF 12 00 AA 06 00 
  1451)      2324.6  Rx         0102  8  BA 66 5C 00 C2 1C 00 00 
  1452)      2324.8  Rx         0112  8  BA 9C FF 40 00 3A 27 00 
  1453)      2325.0  Rx         0122  8  BA F5 FF 07 00 FA 06 00 
  1454)      2326.1  Rx         0100  8  BA FD 5F 00 67 F7 FF 00 
  1455)      2326.3  Rx         0110  8  BA E5 FC A1 00 BC 26 00 
  1456)      2326.6  Rx         0120  8  BA A5 FF 12 00 AA 06 00 
  1457)      2329.6  Rx         0102  8  BB BA 5C 00 74 20 00 00 
  1458)      2329.9  Rx         0112  8  BB 88 FF 40 00 48 27 00 
  1459)      2330.1  Rx         0122  8  BB F3 FF 07 00 F8 06 00 
  1460)      2331.1  Rx         0100  8  BB 68 5F 00 C3 F4 FF 00 
  1461)      2331.3  Rx         0110  8  BB E2 FC 9E 00 B7 26 00 
  1462)      2331.6  Rx         0120  8  BB A4 FF 12 00 AA 06 00 
  1463)      2334.6  Rx         0102  8  BC FF 5B 00 3B 18 00 00 
  1464)      2334.8  Rx         0112  8  BC 88 FF 40 00 3A 27 00 
  1465)      2335.1  Rx         0122  8  BC F3 FF 07 00 F8 06 00 
  1466)      2336.1  Rx         0100  8  BC C6 5E 00 E4 F1 FF 00 
  1467)      2336.3  Rx         0110  8  BC E7 FC 9E 00 B9 26 00 
  1468)      2336.6  Rx         0120  8  BC A5 FF 12 00 AA 06 00 
  1469)      2339.6  Rx         0102  8  BD 98 5B 00 B3 13 00 00 
  1470)      2339.8  Rx         0112  8  BD 88 FF 2C 00 35 27 00 
  1471)      2340.1  Rx         0122  8  BD F1 FF 05 00 F7 06 00 
  1472)      2341.1  Rx         0100  8  BD B4 5E 00 92 F1 FF 00 
  1473)      2341.3  Rx         0110  8  BD E5 FC A0 00 B9 26 00 
  1474)      2341.5  Rx         0120  8  BD A5 FF 12 00 AA 06 00 
  1475)      2344.6  Rx         0102  8  BE 88 5C 00 41 1E 00 00 
  1476)      2344.8  Rx         0112  8  BE 74 FF 2D 00 34 27 00 
  1477)      2345.0  Rx         0122  8  BE F5 FF 05 00 FB 06 00 
  1478)      2346.1  Rx         0100  8  BE 5E 5F 00 96 F4 FF 00 
  1479)      2346.3  Rx         0110  8  BE E9 FC A0 00 B6 26 00 
  1480)      2346.6  Rx         0120  8  BE A5 FF 12 00 AA 06 00 
  1481)      2349.6  Rx         0102  8  BF CE 5C 00 55 21 00 00 
  1482)      2349.8  Rx         0112  8  BF 88 FF 19 00 38 27 00 
  1483)      2350.1  Rx         0122  8  BF F3 FF 05 00 F9 06 00 
  1484)      2351.1  Rx         0100  8  BF 36 5F 00 E0 F3 FF 00 
  1485)      2351.3  Rx         0110  8  BF E4 FC A5 00 B7 26 00 
  1486)      2351.6  Rx         0120  8  BF A5 FF 12 00 AA 06 00 
  1487)      2354.6  Rx         0102  8  C0 2D 5C 00 41 1A 00 00 
  1488)      2354.9  Rx         0112  8  C0 B0 FF 54 00 21 27 00 
  1489)      2355.1  Rx         0122  8  C0 F9 FF 09 00 FC 06 00 
  1490)      2356.1  Rx         0100  8  C0 55 5F 00 6D F4 FF 00 
  1491)      2356.3  Rx         0110  8  C0 E7 FC 9B 00 B2 26 00 
  1492)      2356.6  Rx         0120  8  C0 A5 FF 11 00 AA 06 00 
  1493)      2359.6  Rx         0102  8  C1 51 5B 00 94 10 00 00 
  1494)      2359.8  Rx         0112  8  C1 88 FF 2D 00 39 27 00 
  1495)      2360.1  Rx         0122  8  C1 F5 FF 05 00 FB 06 00 
  1496)      2361.1  Rx         0100  8  C1 AF 5F 00 05 F6 FF 00 
  1497)      2361.3  Rx         0110  8  C1 E4 FC 9E 00 B2 26 00 
  1498)      2361.6  Rx         0120  8  C1 A5 FF 12 00 AA 06 00 
  1499)      2364.6  Rx         0102  8  C2 5A 5C 00 3B 1C 00 00 
  1500)      2364.8  Rx         0112  8  C2 9C FF 2D 00 4D 27 00 
  1501)      2365.1  Rx         0122  8  C2 F5 FF 05 00 FB 06 00 
  1502)      2366.1  Rx         0100  8  C2 BB 5F 00 3C F6 FF 00 
  1503)      2366.3  Rx         0110  8  C2 E2 FC A1 00 B1 26 00 
  1504)      2366.5  Rx         0120  8  C2 A4 FF 12 00 A9 06 00 
  1505)      2369.6  Rx         0102  8  C3 ED 5C 00 B2 22 00 00 
  1506)      2369.8  Rx         0112  8  C3 88 FF 18 00 21 27 00 
  1507)      2370.0  Rx         0122  8  C3 F3 FF 02 00 F9 06 00 
  1508)      2371.1  Rx         0100  8  C3 33 5F 00 D3 F3 FF 00 
